Freq.	V(out)
1.00000000000000e+01	(-5.73159154049932e+01dB,-9.01167476324300e-05°)
1.12201845430196e+01	(-5.73159154048159e+01dB,-1.01112640669767e-04°)
1.25892541179417e+01	(-5.73159154048110e+01dB,-1.13450242695674e-04°)
1.41253754462275e+01	(-5.73159154045818e+01dB,-1.27293292729412e-04°)
1.58489319246111e+01	(-5.73159154042613e+01dB,-1.42825397534034e-04°)
1.77827941003892e+01	(-5.73159154039420e+01dB,-1.60252748890786e-04°)
1.99526231496888e+01	(-5.73159154035970e+01dB,-1.79806542162860e-04°)
2.23872113856834e+01	(-5.73159154030345e+01dB,-2.01746262890684e-04°)
2.51188643150958e+01	(-5.73159154023834e+01dB,-2.26363036977296e-04°)
2.81838293126445e+01	(-5.73159154014959e+01dB,-2.53983547037252e-04°)
3.16227766016838e+01	(-5.73159154005874e+01dB,-2.84974166817694e-04°)
3.54813389233575e+01	(-5.73159153992792e+01dB,-3.19746337412113e-04°)
3.98107170553497e+01	(-5.73159153976689e+01dB,-3.58761256202432e-04°)
4.46683592150963e+01	(-5.73159153957042e+01dB,-4.02536654838232e-04°)
5.01187233627272e+01	(-5.73159153931643e+01dB,-4.51653602065982e-04°)
5.62341325190348e+01	(-5.73159153898762e+01dB,-5.06763767369926e-04°)
6.30957344480192e+01	(-5.73159153858807e+01dB,-5.68598213083848e-04°)
7.07945784384137e+01	(-5.73159153808785e+01dB,-6.37977676850273e-04°)
7.94328234724280e+01	(-5.73159153744332e+01dB,-7.15822790258989e-04°)
8.91250938133744e+01	(-5.73159153664412e+01dB,-8.03166339609434e-04°)
9.99999999999998e+01	(-5.73159153562391e+01dB,-9.01167510605964e-04°)
1.12201845430196e+02	(-5.73159153435650e+01dB,-1.01112661263071e-03°)
1.25892541179416e+02	(-5.73159153275006e+01dB,-1.13450283527897e-03°)
1.41253754462275e+02	(-5.73159153073398e+01dB,-1.27293310976017e-03°)
1.58489319246111e+02	(-5.73159152819064e+01dB,-1.42825442926492e-03°)
1.77827941003892e+02	(-5.73159152499407e+01dB,-1.60252802676421e-03°)
1.99526231496888e+02	(-5.73159152095495e+01dB,-1.79806613256170e-03°)
2.23872113856833e+02	(-5.73159151588959e+01dB,-2.01746365893974e-03°)
2.51188643150957e+02	(-5.73159150950521e+01dB,-2.26363175696781e-03°)
2.81838293126445e+02	(-5.73159150146321e+01dB,-2.53983699098675e-03°)
3.16227766016837e+02	(-5.73159149134096e+01dB,-2.84974464274031e-03°)
3.54813389233575e+02	(-5.73159147860493e+01dB,-3.19746687202097e-03°)
3.98107170553496e+02	(-5.73159146256154e+01dB,-3.58761834180260e-03°)
4.46683592150962e+02	(-5.73159144237401e+01dB,-4.02537528593582e-03°)
5.01187233627271e+02	(-5.73159141695294e+01dB,-4.51654767804294e-03°)
5.62341325190348e+02	(-5.73159138495053e+01dB,-5.06765349615867e-03°)
6.30957344480192e+02	(-5.73159134466150e+01dB,-5.68600595766806e-03°)
7.07945784384136e+02	(-5.73159129394155e+01dB,-6.37981014076211e-03°)
7.94328234724279e+02	(-5.73159123008521e+01dB,-7.15827450619513e-03°)
8.91250938133743e+02	(-5.73159114970002e+01dB,-8.03172984821217e-03°)
9.99999999999997e+02	(-5.73159104849891e+01dB,-9.01176851141397e-03°)
1.12201845430196e+03	(-5.73159092109705e+01dB,-1.01113977954742e-02°)
1.25892541179416e+03	(-5.73159076070657e+01dB,-1.13452135345436e-02°)
1.41253754462275e+03	(-5.73159055878765e+01dB,-1.27295935250814e-02°)
1.58489319246111e+03	(-5.73159030458891e+01dB,-1.42829158578648e-02°)
1.77827941003892e+03	(-5.73158998457493e+01dB,-1.60258039879897e-02°)
1.99526231496887e+03	(-5.73158958170547e+01dB,-1.79814015043717e-02°)
2.23872113856833e+03	(-5.73158907452940e+01dB,-2.01756814626474e-02°)
2.51188643150957e+03	(-5.73158843604416e+01dB,-2.26377935147811e-02°)
2.81838293126444e+03	(-5.73158763225747e+01dB,-2.54004552731524e-02°)
3.16227766016837e+03	(-5.73158662037637e+01dB,-2.85003914059313e-02°)
3.54813389233574e+03	(-5.73158534654001e+01dB,-3.19788294491209e-02°)
3.98107170553496e+03	(-5.73158374294425e+01dB,-3.58820575304579e-02°)
4.46683592150961e+03	(-5.73158172424681e+01dB,-4.02620550050622e-02°)
5.01187233627270e+03	(-5.73157918303642e+01dB,-4.51772041802848e-02°)
5.62341325190347e+03	(-5.73157598412084e+01dB,-5.06930967293114e-02°)
6.30957344480190e+03	(-5.73157195737096e+01dB,-5.68834486047478e-02°)
7.07945784384135e+03	(-5.73156688869619e+01dB,-6.38311411023421e-02°)
7.94328234724278e+03	(-5.73156050872696e+01dB,-7.16294096835343e-02°)
8.91250938133741e+03	(-5.73155247859076e+01dB,-8.03832063402581e-02°)
9.99999999999995e+03	(-5.73154237204634e+01dB,-9.02107693365474e-02°)
1.12201845430196e+04	(-5.73152965309699e+01dB,-1.01245441627352e-01°)
1.25892541179416e+04	(-5.73151364791703e+01dB,-1.13637792268921e-01°)
1.41253754462275e+04	(-5.73149350971749e+01dB,-1.27558110306357e-01°)
1.58489319246111e+04	(-5.73146817485177e+01dB,-1.43199363074274e-01°)
1.77827941003891e+04	(-5.73143630804707e+01dB,-1.60780740125467e-01°)
1.99526231496887e+04	(-5.73139623428760e+01dB,-1.80551944614804e-01°)
2.23872113856833e+04	(-5.73134585429610e+01dB,-2.02798449213817e-01°)
2.51188643150957e+04	(-5.73128254017889e+01dB,-2.27848008458971e-01°)
2.81838293126444e+04	(-5.73120300715860e+01dB,-2.56078822069250e-01°)
3.16227766016836e+04	(-5.73110315704551e+01dB,-2.87929880674104e-01°)
3.54813389233573e+04	(-5.73097788887966e+01dB,-3.23914209650235e-01°)
3.98107170553495e+04	(-5.73082087256153e+01dB,-3.64635969387054e-01°)
4.46683592150960e+04	(-5.73062428245378e+01dB,-4.10812684594195e-01°)
5.01187233627269e+04	(-5.73037849070022e+01dB,-4.63304272003088e-01°)
5.62341325190346e+04	(-5.73007172500666e+01dB,-5.23151018430728e-01°)
6.30957344480189e+04	(-5.72968970426497e+01dB,-5.91623213228427e-01°)
7.07945784384133e+04	(-5.72921527937611e+01dB,-6.70285710367529e-01°)
7.94328234724276e+04	(-5.72862812771749e+01dB,-7.61081172986696e-01°)
8.91250938133740e+04	(-5.72790458036182e+01dB,-8.66435918703617e-01°)
9.99999999999993e+04	(-5.72701770249751e+01dB,-9.89391778415099e-01°)
1.12201845430196e+05	(-5.72593779908193e+01dB,-1.13376565137461e+00°)
1.25892541179416e+05	(-5.72463357407435e+01dB,-1.30433475380922e+00°)
1.41253754462274e+05	(-5.72307421930453e+01dB,-1.50703911486860e+00°)
1.58489319246110e+05	(-5.72123272232074e+01dB,-1.74918314360833e+00°)
1.77827941003891e+05	(-5.71909062302506e+01dB,-2.03960544765023e+00°)
1.99526231496886e+05	(-5.71664427030502e+01dB,-2.38877276396775e+00°)
2.23872113856832e+05	(-5.71391229926450e+01dB,-2.80874481793020e+00°)
2.51188643150956e+05	(-5.71094358330156e+01dB,-3.31295976708281e+00°)
2.81838293126443e+05	(-5.70782442136274e+01dB,-3.91581258701262e+00°)
3.16227766016835e+05	(-5.70468341481081e+01dB,-4.63204445953961e+00°)
3.54813389233573e+05	(-5.70169263522781e+01dB,-5.47602176805024e+00°)
3.98107170553494e+05	(-5.69906444694801e+01dB,-6.46103647331863e+00°)
4.46683592150960e+05	(-5.69704460873931e+01dB,-7.59877597199333e+00°)
5.01187233627268e+05	(-5.69590358232014e+01dB,-8.89907010629094e+00°)
5.62341325190344e+05	(-5.69592871084560e+01dB,-1.03699321203940e+01°)
6.30957344480188e+05	(-5.69741968716653e+01dB,-1.20178035357560e+01°)
7.07945784384132e+05	(-5.70068856543446e+01dB,-1.38478348010601e+01°)
7.94328234724275e+05	(-5.70606396175418e+01dB,-1.58640135308026e+01°)
8.91250938133738e+05	(-5.71389763414871e+01dB,-1.80689912855439e+01°)
9.99999999999991e+05	(-5.72457072935211e+01dB,-2.04635365351872e+01°)
1.12201845430195e+06	(-5.73849671320644e+01dB,-2.30456323246780e+01°)
1.25892541179416e+06	(-5.75611829232675e+01dB,-2.58093226469506e+01°)
1.41253754462274e+06	(-5.77789636813233e+01dB,-2.87434870524694e+01°)
1.58489319246110e+06	(-5.80429023654013e+01dB,-3.18307809812279e+01°)
1.77827941003891e+06	(-5.83572985487748e+01dB,-3.50470085319546e+01°)
1.99526231496886e+06	(-5.87258291894794e+01dB,-3.83611749091145e+01°)
2.23872113856832e+06	(-5.91512133975436e+01dB,-4.17363792497539e+01°)
2.51188643150956e+06	(-5.96349284451755e+01dB,-4.51315557469418e+01°)
2.81838293126443e+06	(-6.01770322164800e+01dB,-4.85038806584703e+01°)
3.16227766016835e+06	(-6.07761292519441e+01dB,-5.18114962132995e+01°)
3.54813389233572e+06	(-6.14294876570557e+01dB,-5.50161202195247e+01°)
3.98107170553494e+06	(-6.21332821593546e+01dB,-5.80851466426322e+01°)
4.46683592150959e+06	(-6.28829153780657e+01dB,-6.09929814626266e+01°)
5.01187233627268e+06	(-6.36733614581653e+01dB,-6.37215428877046e+01°)
5.62341325190344e+06	(-6.44994832729700e+01dB,-6.62600210336540e+01°)
6.30957344480187e+06	(-6.53562907662001e+01dB,-6.86040956633836e+01°)
7.07945784384131e+06	(-6.62391264967065e+01dB,-7.07548419295369e+01°)
7.94328234724274e+06	(-6.71437796465651e+01dB,-7.27175292179075e+01°)
8.91250938133737e+06	(-6.80665392709361e+01dB,-7.45004645393590e+01°)
9.99999999999990e+06	(-6.90042015916202e+01dB,-7.61139724131043e+01°)
1.12201845430195e+07	(-6.99540461713208e+01dB,-7.75695529962509e+01°)
1.25892541179415e+07	(-7.09137936161595e+01dB,-7.88792244570520e+01°)
1.41253754462274e+07	(-7.18815544428632e+01dB,-8.00550342506337e+01°)
1.58489319246110e+07	(-7.28557757958457e+01dB,-8.11087137812755e+01°)
1.77827941003890e+07	(-7.38351902342546e+01dB,-8.20514482622681e+01°)
1.99526231496886e+07	(-7.48187689530965e+01dB,-8.28937351142130e+01°)
2.23872113856832e+07	(-7.58056805132117e+01dB,-8.36453079764805e+01°)
2.51188643150955e+07	(-7.67952553245023e+01dB,-8.43151076041338e+01°)
2.81838293126442e+07	(-7.77869556343614e+01dB,-8.49112850886314e+01°)
3.16227766016834e+07	(-7.87803505141545e+01dB,-8.54412263423448e+01°)
3.54813389233572e+07	(-7.97750952282448e+01dB,-8.59115897524363e+01°)
3.98107170553493e+07	(-8.07709143536530e+01dB,-8.63283511622255e+01°)
4.46683592150958e+07	(-8.17675880533990e+01dB,-8.66968521001558e+01°)
5.01187233627267e+07	(-8.27649409669252e+01dB,-8.70218484580842e+01°)
5.62341325190343e+07	(-8.37628332505760e+01dB,-8.73075577615312e+01°)
6.30957344480186e+07	(-8.47611533706217e+01dB,-8.75577038616963e+01°)
7.07945784384130e+07	(-8.57598123157614e+01dB,-8.77755583276324e+01°)
7.94328234724272e+07	(-8.67587389531712e+01dB,-8.79639781652993e+01°)
8.91250938133735e+07	(-8.77578763012698e+01dB,-8.81254396844889e+01°)
9.99999999999989e+07	(-8.87571785337105e+01dB,-8.82620684952827e+01°)
1.12201845430195e+08	(-8.97566085632851e+01dB,-8.83756656894910e+01°)
1.25892541179415e+08	(-9.07561360822794e+01dB,-8.84677303113742e+01°)
1.41253754462274e+08	(-9.17557359582381e+01dB,-8.85394782510623e+01°)
1.58489319246109e+08	(-9.27553869017915e+01dB,-8.85918576860452e+01°)
1.77827941003890e+08	(-9.37550703369520e+01dB,-8.86255611981383e+01°)
1.99526231496886e+08	(-9.47547694145777e+01dB,-8.86410346668173e+01°)
2.23872113856831e+08	(-9.57544681170581e+01dB,-8.86384830247323e+01°)
2.51188643150955e+08	(-9.67541504069522e+01dB,-8.86178729286987e+01°)
2.81838293126442e+08	(-9.77537993746129e+01dB,-8.85789323803983e+01°)
3.16227766016834e+08	(-9.87533963397503e+01dB,-8.85211472954501e+01°)
3.54813389233571e+08	(-9.97529198595372e+01dB,-8.84437549981455e+01°)
3.98107170553492e+08	(-1.00752344591063e+02dB,-8.83457345939091e+01°)
4.46683592150958e+08	(-1.01751639948495e+02dB,-8.82257941501694e+01°)
5.01187233627266e+08	(-1.02750768484874e+02dB,-8.80823546020661e+01°)
5.62341325190342e+08	(-1.03749683914666e+02dB,-8.79135302957863e+01°)
6.30957344480185e+08	(-1.04748328675320e+02dB,-8.77171060881833e+01°)
7.07945784384129e+08	(-1.05746630903637e+02dB,-8.74905109513722e+01°)
7.94328234724271e+08	(-1.06744500674816e+02dB,-8.72307880863482e+01°)
8.91250938133734e+08	(-1.07741825317929e+02dB,-8.69345616466349e+01°)
1.00000000000000e+09	(-1.08738463580418e+02dB,-8.65980003277446e+01°)
