Freq.	V(out)
1.00000000000000e+01	(2.17737471320198e+00dB,-1.36461144324557e+00°)
1.12201845430196e+01	(2.17673559298773e+00dB,-1.53104425205810e+00°)
1.25892541179417e+01	(2.17593112203377e+00dB,-1.71775391027667e+00°)
1.41253754462275e+01	(2.17491856495368e+00dB,-1.92720179816689e+00°)
1.58489319246111e+01	(2.17364416669502e+00dB,-2.16214437329471e+00°)
1.77827941003892e+01	(2.17204032589868e+00dB,-2.42566701698340e+00°)
1.99526231496888e+01	(2.17002205178682e+00dB,-2.72122112792321e+00°)
2.23872113856834e+01	(2.16748252817570e+00dB,-3.05266450094829e+00°)
2.51188643150958e+01	(2.16428756742881e+00dB,-3.42430489045846e+00°)
2.81838293126445e+01	(2.16026868938371e+00dB,-3.84094644698258e+00°)
3.16227766016838e+01	(2.15521450404677e+00dB,-4.30793840288143e+00°)
3.54813389233575e+01	(2.14886001384353e+00dB,-4.83122493019414e+00°)
3.98107170553497e+01	(2.14087338259486e+00dB,-5.41739444893677e+00°)
4.46683592150963e+01	(2.13083964875677e+00dB,-6.07372576216253e+00°)
5.01187233627272e+01	(2.11824079926844e+00dB,-6.80822715395130e+00°)
5.62341325190348e+01	(2.10243158111501e+00dB,-7.62966291405808e+00°)
6.30957344480192e+01	(2.08261043647879e+00dB,-8.54755954890651e+00°)
7.07945784384137e+01	(2.05778504065221e+00dB,-9.57218111774617e+00°)
7.94328234724280e+01	(2.02673215780579e+00dB,-1.07144596624741e+01°)
8.91250938133744e+01	(1.98795198482733e+00dB,-1.19858626683580e+01°)
9.99999999999998e+01	(1.93961793148003e+00dB,-1.33981752217546e+01°)
1.12201845430196e+02	(1.87952400575281e+00dB,-1.49631707372062e+01°)
1.25892541179416e+02	(1.80503374685767e+00dB,-1.66921421335692e+01°)
1.41253754462275e+02	(1.71303703421961e+00dB,-1.85952672874121e+01°)
1.58489319246111e+02	(1.59992400624498e+00dB,-2.06807915276670e+01°)
1.77827941003892e+02	(1.46158837286948e+00dB,-2.29540295385646e+01°)
1.99526231496888e+02	(1.29347479646330e+00dB,-2.54162226375957e+01°)
2.23872113856833e+02	(1.09068540854253e+00dB,-2.80633359259729e+01°)
2.51188643150957e+02	(8.48157192909337e-01dB,-3.08849387296121e+01°)
2.81838293126445e+02	(5.60913289828730e-01dB,-3.38633679100253e+01°)
3.16227766016837e+02	(2.24376806907789e-01dB,-3.69734045136065e+01°)
3.54813389233575e+02	(-1.65282595069748e-01dB,-4.01826729188643e+01°)
3.98107170553496e+02	(-6.10816237302725e-01dB,-4.34528791958156e+01°)
4.46683592150962e+02	(-1.11363390157177e+00dB,-4.67418470338805e+01°)
5.01187233627271e+02	(-1.67366165852285e+00dB,-5.00061241354628e+01°)
5.62341325190348e+02	(-2.28934943714240e+00dB,-5.32037828036577e+01°)
6.30957344480192e+02	(-2.95782673411314e+00dB,-5.62969848894208e+01°)
7.07945784384136e+02	(-3.67517442692734e+00dB,-5.92539459906273e+01°)
7.94328234724279e+02	(-4.43676103150317e+00dB,-6.20500894835043e+01°)
8.91250938133743e+02	(-5.23758789549508e+00dB,-6.46683663402740e+01°)
9.99999999999997e+02	(-6.07259786960031e+00dB,-6.70988697460749e+01°)
1.12201845430196e+03	(-6.93691957242329e+00dB,-6.93379587178429e+01°)
1.25892541179416e+03	(-7.82603747791199e+00dB,-7.13871200219704e+01°)
1.41253754462275e+03	(-8.73589199266817e+00dB,-7.32517631236957e+01°)
1.58489319246111e+03	(-9.66292179397458e+00dB,-7.49400856052072e+01°)
1.77827941003892e+03	(-1.06040635914893e+01dB,-7.64620881582902e+01°)
1.99526231496887e+03	(-1.15567238121164e+01dB,-7.78287710989592e+01°)
2.23872113856833e+03	(-1.25187342025202e+01dB,-7.90515122185622e+01°)
2.51188643150957e+03	(-1.34883002783574e+01dB,-8.01416073861988e+01°)
2.81838293126444e+03	(-1.44639486837054e+01dB,-8.11099472157093e+01°)
3.16227766016837e+03	(-1.54444771958011e+01dB,-8.19668016600570e+01°)
3.54813389233574e+03	(-1.64289093934000e+01dB,-8.27216866357552e+01°)
3.98107170553496e+03	(-1.74164548329125e+01dB,-8.33832906572816e+01°)
4.46683592150961e+03	(-1.84064748333081e+01dB,-8.39594437219432e+01°)
5.01187233627270e+03	(-1.93984535368368e+01dB,-8.44571146599636e+01°)
5.62341325190347e+03	(-2.03919736911566e+01dB,-8.48824265607899e+01°)
6.30957344480190e+03	(-2.13866965091572e+01dB,-8.52406826329717e+01°)
7.07945784384135e+03	(-2.23823449547541e+01dB,-8.55363969920272e+01°)
7.94328234724278e+03	(-2.33786898366214e+01dB,-8.57733264875956e+01°)
8.91250938133741e+03	(-2.43755381444874e+01dB,-8.59545008787351e+01°)
9.99999999999995e+03	(-2.53727231205044e+01dB,-8.60822495394580e+01°)
1.12201845430196e+04	(-2.63700956101361e+01dB,-8.61582235083764e+01°)
1.25892541179416e+04	(-2.73675162812933e+01dB,-8.61834121546923e+01°)
1.41253754462275e+04	(-2.83648483314911e+01dB,-8.61581540744083e+01°)
1.58489319246111e+04	(-2.93619503222473e+01dB,-8.60821421017562e+01°)
1.77827941003891e+04	(-3.03586687841806e+01dB,-8.59544225627046e+01°)
1.99526231496887e+04	(-3.13548302285935e+01dB,-8.57733891470808e+01°)
2.23872113856833e+04	(-3.23502321790763e+01dB,-8.55367720725233e+01°)
2.51188643150957e+04	(-3.33446328028666e+01dB,-8.52416235991485e+01°)
2.81838293126444e+04	(-3.43377386763678e+01dB,-8.48843014790305e+01°)
3.16227766016836e+04	(-3.53291901679205e+01dB,-8.44604526490489e+01°)
3.54813389233573e+04	(-3.63185438671887e+01dB,-8.39650004742915e+01°)
3.98107170553495e+04	(-3.73052514479332e+01dB,-8.33921402082871e+01°)
4.46683592150960e+04	(-3.82886343362773e+01dB,-8.27353491545294e+01°)
5.01187233627269e+04	(-3.92678535976010e+01dB,-8.19874203902118e+01°)
5.62341325190346e+04	(-4.02418745979907e+01dB,-8.11405319206200e+01°)
6.30957344480189e+04	(-4.12094263009343e+01dB,-8.01863667782009e+01°)
7.07945784384133e+04	(-4.21689556150772e+01dB,-7.91163037178066e+01°)
7.94328234724276e+04	(-4.31185781231059e+01dB,-7.79217023681800e+01°)
8.91250938133740e+04	(-4.40560279154379e+01dB,-7.65943101052146e+01°)
9.99999999999993e+04	(-4.49786112321807e+01dB,-7.51268189618737e+01°)
1.12201845430196e+05	(-4.58831712052677e+01dB,-7.35135971708453e+01°)
1.25892541179416e+05	(-4.67660740345851e+01dB,-7.17516081493932e+01°)
1.41253754462274e+05	(-4.76232299428002e+01dB,-6.98415061401522e+01°)
1.58489319246110e+05	(-4.84501642793740e+01dB,-6.77888593846156e+01°)
1.77827941003891e+05	(-4.92421536620212e+01dB,-6.56053990501808e+01°)
1.99526231496886e+05	(-4.99944374643428e+01dB,-6.33101312915133e+01°)
2.23872113856832e+05	(-5.07025044366187e+01dB,-6.09300981332862e+01°)
2.51188643150956e+05	(-5.13624385742403e+01dB,-5.85005527980853e+01°)
2.81838293126443e+05	(-5.19712896602692e+01dB,-5.60643547977830e+01°)
3.16227766016835e+05	(-5.25274183993078e+01dB,-5.36705018748764e+01°)
3.54813389233573e+05	(-5.30307608916456e+01dB,-5.13718843742923e+01°)
3.98107170553494e+05	(-5.34829669561052e+01dB,-4.92225273939081e+01°)
4.46683592150960e+05	(-5.38873914504247e+01dB,-4.72747073774891e+01°)
5.01187233627268e+05	(-5.42489489828356e+01dB,-4.55763453489323e+01°)
5.62341325190344e+05	(-5.45738695612917e+01dB,-4.41689786665383e+01°)
6.30957344480188e+05	(-5.48694064169957e+01dB,-4.30864384888408e+01°)
7.07945784384132e+05	(-5.51435442942047e+01dB,-4.23541799049228e+01°)
7.94328234724275e+05	(-5.54047408816018e+01dB,-4.19890808992021e+01°)
8.91250938133738e+05	(-5.56617124565276e+01dB,-4.19994798278554e+01°)
9.99999999999991e+05	(-5.59232549601085e+01dB,-4.23852498728110e+01°)
1.12201845430195e+06	(-5.61980780546154e+01dB,-4.31377977547033e+01°)
1.25892541179416e+06	(-5.64946251521769e+01dB,-4.42399888516313e+01°)
1.41253754462274e+06	(-5.68208573901652e+01dB,-4.56661160897353e+01°)
1.58489319246110e+06	(-5.71839933852753e+01dB,-4.73821160428350e+01°)
1.77827941003891e+06	(-5.75902167765019e+01dB,-4.93462630087028e+01°)
1.99526231496886e+06	(-5.80443849335958e+01dB,-5.15105205131578e+01°)
2.23872113856832e+06	(-5.85497875874468e+01dB,-5.38225973233913e+01°)
2.51188643150956e+06	(-5.91080063541420e+01dB,-5.62285731979195e+01°)
2.81838293126443e+06	(-5.97189118514802e+01dB,-5.86757868116420e+01°)
3.16227766016835e+06	(-6.03808076102340e+01dB,-6.11155819314938e+01°)
3.54813389233572e+06	(-6.10906986720046e+01dB,-6.35055281202147e+01°)
3.98107170553494e+06	(-6.18446388126361e+01dB,-6.58108572597817e+01°)
4.46683592150959e+06	(-6.26381009865327e+01dB,-6.80050374797163e+01°)
5.01187233627268e+06	(-6.34663214049488e+01dB,-7.00695729840073e+01°)
5.62341325190344e+06	(-6.43245834187377e+01dB,-7.19932277277710e+01°)
6.30957344480187e+06	(-6.52084259464667e+01dB,-7.37709071139386e+01°)
7.07945784384131e+06	(-6.61137768620990e+01dB,-7.54024108766640e+01°)
7.94328234724274e+06	(-6.70370218584561e+01dB,-7.68912171582862e+01°)
8.91250938133737e+06	(-6.79750237938046e+01dB,-7.82433974483307e+01°)
9.99999999999990e+06	(-6.89251078459716e+01dB,-7.94667096886349e+01°)
1.12201845430195e+07	(-6.98850257129735e+01dB,-8.05698792819452e+01°)
1.25892541179415e+07	(-7.08529090746109e+01dB,-8.15620545092511e+01°)
1.41253754462274e+07	(-7.18272194990492e+01dB,-8.24524116434546e+01°)
1.58489319246110e+07	(-7.28066994139470e+01dB,-8.32498814385782e+01°)
1.77827941003890e+07	(-7.37903268081402e+01dB,-8.39629699589713e+01°)
1.99526231496886e+07	(-7.47772749588045e+01dB,-8.45996501473133e+01°)
2.23872113856832e+07	(-7.57668775839344e+01dB,-8.51673047543695e+01°)
2.51188643150955e+07	(-7.67585992797163e+01dB,-8.56727054016826e+01°)
2.81838293126442e+07	(-7.77520108087812e+01dB,-8.61220161993748e+01°)
3.16227766016834e+07	(-7.87467686731843e+01dB,-8.65208132759768e+01°)
3.54813389233572e+07	(-7.97425983730199e+01dB,-8.68741140291267e+01°)
3.98107170553493e+07	(-8.07392807756377e+01dB,-8.71864116292519e+01°)
4.46683592150958e+07	(-8.17366410733562e+01dB,-8.74617117172519e+01°)
5.01187233627267e+07	(-8.27345398723362e+01dB,-8.77035692045475e+01°)
5.62341325190343e+07	(-8.37328660215954e+01dB,-8.79151237973579e+01°)
6.30957344480186e+07	(-8.47315308535320e+01dB,-8.80991333748301e+01°)
7.07945784384130e+07	(-8.57304635631085e+01dB,-8.82580046971563e+01°)
7.94328234724272e+07	(-8.67296075011442e+01dB,-8.83938211675646e+01°)
8.91250938133735e+07	(-8.77289171979408e+01dB,-8.85083675140583e+01°)
9.99999999999989e+07	(-8.87283559674087e+01dB,-8.86031513784749e+01°)
1.12201845430195e+08	(-8.97278939695608e+01dB,-8.86794218424581e+01°)
1.25892541179415e+08	(-9.07275066316807e+01dB,-8.87381849649877e+01°)
1.41253754462274e+08	(-9.17271733462731e+01dB,-8.87802164095504e+01°)
1.58489319246109e+08	(-9.27268763778784e+01dB,-8.88060712455351e+01°)
1.77827941003890e+08	(-9.37265999214462e+01dB,-8.88160909940092e+01°)
1.99526231496886e+08	(-9.47263292627219e+01dB,-8.88104079711435e+01°)
2.23872113856831e+08	(-9.57260499963987e+01dB,-8.87889469674024e+01°)
2.51188643150955e+08	(-9.67257472607586e+01dB,-8.87514242732802e+01°)
2.81838293126442e+08	(-9.77254049484330e+01dB,-8.86973440425246e+01°)
3.16227766016834e+08	(-9.87250048517081e+01dB,-8.86259919583470e+01°)
3.54813389233571e+08	(-9.97245256975408e+01dB,-8.85364261501279e+01°)
3.98107170553492e+08	(-1.00723942021853e+02dB,-8.84274652845813e+01°)
4.46683592150958e+08	(-1.01723222824677e+02dB,-8.82976737441640e+01°)
5.01187233627266e+08	(-1.02722329936876e+02dB,-8.81453437963200e+01°)
5.62341325190342e+08	(-1.03721216015105e+02dB,-8.79684746591813e+01°)
6.30957344480185e+08	(-1.04719822063921e+02dB,-8.77647483871242e+01°)
7.07945784384129e+08	(-1.05718074361891e+02dB,-8.75315025360865e+01°)
7.94328234724271e+08	(-1.06715880641644e+02dB,-8.72656996372179e+01°)
8.91250938133734e+08	(-1.07713125341396e+02dB,-8.69638936153465e+01°)
1.00000000000000e+09	(-1.08709663707217e+02dB,-8.66221934544746e+01°)
