Freq.	V(out)
1.00000000000000e+01	(-5.16713401128237e+01dB,1.79935365777052e+02°)
1.12201845430196e+01	(-5.16713386895726e+01dB,1.79927479216974e+02°)
1.25892541179417e+01	(-5.16713368977424e+01dB,1.79918630354284e+02°)
1.41253754462275e+01	(-5.16713346420103e+01dB,1.79908701771651e+02°)
1.58489319246111e+01	(-5.16713318022018e+01dB,1.79897561725214e+02°)
1.77827941003892e+01	(-5.16713282272106e+01dB,1.79885062396716e+02°)
1.99526231496888e+01	(-5.16713237264088e+01dB,1.79871037932451e+02°)
2.23872113856834e+01	(-5.16713180602773e+01dB,1.79855302243062e+02°)
2.51188643150958e+01	(-5.16713109270670e+01dB,1.79837646535065e+02°)
2.81838293126445e+01	(-5.16713019469294e+01dB,1.79817836541439e+02°)
3.16227766016838e+01	(-5.16712906416373e+01dB,1.79795609414665e+02°)
3.54813389233575e+01	(-5.16712764090954e+01dB,1.79770670241206e+02°)
3.98107170553497e+01	(-5.16712584914833e+01dB,1.79742688131414e+02°)
4.46683592150963e+01	(-5.16712359346659e+01dB,1.79711291833420e+02°)
5.01187233627272e+01	(-5.16712075374461e+01dB,1.79676064813314e+02°)
5.62341325190348e+01	(-5.16711717877823e+01dB,1.79636539737130e+02°)
6.30957344480192e+01	(-5.16711267820070e+01dB,1.79592192282537e+02°)
7.07945784384137e+01	(-5.16710701237856e+01dB,1.79542434199619e+02°)
7.94328234724280e+01	(-5.16709987963652e+01dB,1.79486605530932e+02°)
8.91250938133744e+01	(-5.16709090020109e+01dB,1.79423965890655e+02°)
9.99999999999998e+01	(-5.16707959603656e+01dB,1.79353684691483e+02°)
1.12201845430196e+02	(-5.16706536535664e+01dB,1.79274830195848e+02°)
1.25892541179416e+02	(-5.16704745065034e+01dB,1.79186357254808e+02°)
1.41253754462275e+02	(-5.16702489842276e+01dB,1.79087093584289e+02°)
1.58489319246111e+02	(-5.16699650851379e+01dB,1.78975724413988e+02°)
1.77827941003892e+02	(-5.16696077037364e+01dB,1.78850775329750e+02°)
1.99526231496888e+02	(-5.16691578290697e+01dB,1.78710593116421e+02°)
2.23872113856833e+02	(-5.16685915366439e+01dB,1.78553324395859e+02°)
2.51188643150957e+02	(-5.16678787217205e+01dB,1.78376891845467e+02°)
2.81838293126445e+02	(-5.16669815071737e+01dB,1.78178967778904e+02°)
3.16227766016837e+02	(-5.16658522445548e+01dB,1.77956944875056e+02°)
3.54813389233575e+02	(-5.16644310044408e+01dB,1.77707903859526e+02°)
3.98107170553496e+02	(-5.16626424302415e+01dB,1.77428577980180e+02°)
4.46683592150962e+02	(-5.16603917955894e+01dB,1.77115314185861e+02°)
5.01187233627271e+02	(-5.16575600718466e+01dB,1.76764031025937e+02°)
5.62341325190348e+02	(-5.16539977662023e+01dB,1.76370173458252e+02°)
6.30957344480192e+02	(-5.16495172396952e+01dB,1.75928665007690e+02°)
7.07945784384136e+02	(-5.16438831558699e+01dB,1.75433858090232e+02°)
7.94328234724279e+02	(-5.16368006413521e+01dB,1.74879483855153e+02°)
8.91250938133743e+02	(-5.16279006755063e+01dB,1.74258603652863e+02°)
9.99999999999997e+02	(-5.16167221534988e+01dB,1.73563565288890e+02°)
1.12201845430196e+03	(-5.16026900167517e+01dB,1.72785968656166e+02°)
1.25892541179416e+03	(-5.15850888254001e+01dB,1.71916647248487e+02°)
1.41253754462275e+03	(-5.15630311881967e+01dB,1.70945674546698e+02°)
1.58489319246111e+03	(-5.15354206189497e+01dB,1.69862407398276e+02°)
1.77827941003892e+03	(-5.15009087177166e+01dB,1.68655582267662e+02°)
1.99526231496887e+03	(-5.14578471685552e+01dB,1.67313484439518e+02°)
2.23872113856833e+03	(-5.14042360177787e+01dB,1.65824214421912e+02°)
2.51188643150957e+03	(-5.13376711685622e+01dB,1.64176078945026e+02°)
2.81838293126444e+03	(-5.12552960894194e+01dB,1.62358134397323e+02°)
3.16227766016837e+03	(-5.11537653937660e+01dB,1.60360905706539e+02°)
3.54813389233574e+03	(-5.10292309884829e+01dB,1.58177290151532e+02°)
3.98107170553496e+03	(-5.08773643620415e+01dB,1.55803629675158e+02°)
4.46683592150961e+03	(-5.06934302218226e+01dB,1.53240894449023e+02°)
5.01187233627270e+03	(-5.04724255419496e+01dB,1.50495865948691e+02°)
5.62341325190347e+03	(-5.02092923721928e+01dB,1.47582147937470e+02°)
6.30957344480190e+03	(-4.98992012737164e+01dB,1.44520786297012e+02°)
7.07945784384135e+03	(-4.95378855231868e+01dB,1.41340269271656e+02°)
7.94328234724278e+03	(-4.91219876599300e+01dB,1.38075733475138e+02°)
8.91250938133741e+03	(-4.86493657735233e+01dB,1.34767327382824e+02°)
9.99999999999995e+03	(-4.81193042615992e+01dB,1.31457862031911e+02°)
1.12201845430196e+04	(-4.75325868539910e+01dB,1.28190055398252e+02°)
1.25892541179416e+04	(-4.68914165467941e+01dB,1.25003786521603e+02°)
1.41253754462275e+04	(-4.61991992506305e+01dB,1.21933772650852e+02°)
1.58489319246111e+04	(-4.54602343079200e+01dB,1.19007968638085e+02°)
1.77827941003891e+04	(-4.46793673607460e+01dB,1.16246809534935e+02°)
1.99526231496887e+04	(-4.38616577104092e+01dB,1.13663240753262e+02°)
2.23872113856833e+04	(-4.30120977697040e+01dB,1.11263356962671e+02°)
2.51188643150957e+04	(-4.21354036030434e+01dB,1.09047420424408e+02°)
2.81838293126444e+04	(-4.12358790186651e+01dB,1.07011041206426e+02°)
3.16227766016836e+04	(-4.03173444654490e+01dB,1.05146350270013e+02°)
3.54813389233573e+04	(-3.93831165220199e+01dB,1.03443056329464e+02°)
3.98107170553495e+04	(-3.84360227831590e+01dB,1.01889331345066e+02°)
4.46683592150960e+04	(-3.74784386752873e+01dB,1.00472509594283e+02°)
5.01187233627269e+04	(-3.65123356252484e+01dB,9.91796105061064e+01°)
5.62341325190346e+04	(-3.55393330369802e+01dB,9.79977084487210e+01°)
6.30957344480189e+04	(-3.45607491560589e+01dB,9.69141771350779e+01°)
7.07945784384133e+04	(-3.35776479293878e+01dB,9.59168356424479e+01°)
7.94328234724276e+04	(-3.25908804021581e+01dB,9.49940197519457e+01°)
8.91250938133740e+04	(-3.16011201339999e+01dB,9.41345980508288e+01°)
9.99999999999993e+04	(-3.06088926805643e+01dB,9.33279479454226e+01°)
1.12201845430196e+05	(-2.96145994859719e+01dB,9.25639028666617e+01°)
1.25892541179416e+05	(-2.86185366539045e+01dB,9.18326786699770e+01°)
1.41253754462274e+05	(-2.76209090747735e+01dB,9.11247845291113e+01°)
1.58489319246110e+05	(-2.66218403279496e+01dB,9.04309214048008e+01°)
1.77827941003891e+05	(-2.56213786793923e+01dB,8.97418693027782e+01°)
1.99526231496886e+05	(-2.46194993742973e+01dB,8.90483628718553e+01°)
2.23872113856832e+05	(-2.36161032911845e+01dB,8.83409532722626e+01°)
2.51188643150956e+05	(-2.26110118843267e+01dB,8.76098524896313e+01°)
2.81838293126443e+05	(-2.16039581999816e+01dB,8.68447541700687e+01°)
3.16227766016835e+05	(-2.05945736143981e+01dB,8.60346223397693e+01°)
3.54813389233573e+05	(-1.95823698193270e+01dB,8.51674356851577e+01°)
3.98107170553494e+05	(-1.85667154966163e+01dB,8.42298698942253e+01°)
4.46683592150960e+05	(-1.75468071229335e+01dB,8.32068931488353e+01°)
5.01187233627268e+05	(-1.65216335172684e+01dB,8.20812391032764e+01°)
5.62341325190344e+05	(-1.54899342580632e+01dB,8.08327059266213e+01°)
6.30957344480188e+05	(-1.44501532808448e+01dB,7.94372067375957e+01°)
7.07945784384132e+05	(-1.34003914525078e+01dB,7.78654623307834e+01°)
7.94328234724275e+05	(-1.23383669331790e+01dB,7.60811761842898e+01°)
8.91250938133738e+05	(-1.12614020932405e+01dB,7.40384573406789e+01°)
9.99999999999991e+05	(-1.01664754267747e+01dB,7.16781515535737e+01°)
1.12201845430195e+06	(-9.05041576615125e+00dB,6.89226041832029e+01°)
1.25892541179416e+06	(-7.91039272492590e+00dB,6.56682388959416e+01°)
1.41253754462274e+06	(-6.74500654016071e+00dB,6.17753271493972e+01°)
1.58489319246110e+06	(-5.55656004624826e+00dB,5.70548938680767e+01°)
1.77827941003891e+06	(-4.35556516596552e+00dB,5.12551716353559e+01°)
1.99526231496886e+06	(-3.16908958796806e+00dB,4.40576888479654e+01°)
2.23872113856832e+06	(-2.05421700257935e+00dB,3.51118983337606e+01°)
2.51188643150956e+06	(-1.11315373629060e+00dB,2.41670734531803e+01°)
2.81838293126443e+06	(-4.91772735851882e-01dB,1.13512951696560e+01°)
3.16227766016835e+06	(-3.29588574700629e-01dB,-2.54027812781697e+00°)
3.54813389233572e+06	(-6.70046934320126e-01dB,-1.61783597543013e+01°)
3.98107170553494e+06	(-1.42550867654850e+00dB,-2.83697338328174e+01°)
4.46683592150959e+06	(-2.44459079017202e+00dB,-3.85780298157912e+01°)
5.01187233627268e+06	(-3.59464048120930e+00dB,-4.68520931761906e+01°)
5.62341325190344e+06	(-4.79113362594103e+00dB,-5.35031914340138e+01°)
6.30957344480187e+06	(-5.98970876756051e+00dB,-5.88788079517978e+01°)
7.07945784384131e+06	(-7.17058005453092e+00dB,-6.32742962582528e+01°)
7.94328234724274e+06	(-8.32693910275453e+00dB,-6.69173626510568e+01°)
8.91250938133737e+06	(-9.45820650906460e+00dB,-6.99775044590998e+01°)
9.99999999999990e+06	(-1.05664940675288e+01dB,-7.25799851562039e+01°)
1.12201845430195e+07	(-1.16548540285358e+01dB,-7.48179746987992e+01°)
1.25892541179415e+07	(-1.27264560916168e+01dB,-7.67617047361280e+01°)
1.41253754462274e+07	(-1.37842302024354e+01dB,-7.84650212861733e+01°)
1.58489319246110e+07	(-1.48307376074270e+01dB,-7.99699890964553e+01°)
1.77827941003890e+07	(-1.58681501600889e+01dB,-8.13101174959188e+01°)
1.99526231496886e+07	(-1.68982778449795e+01dB,-8.25126316622545e+01°)
2.23872113856832e+07	(-1.79226148736799e+01dB,-8.36000868399420e+01°)
2.51188643150955e+07	(-1.89423901042978e+01dB,-8.45915296647322e+01°)
2.81838293126442e+07	(-1.99586153377428e+01dB,-8.55033457124788e+01°)
3.16227766016834e+07	(-2.09721289775753e+01dB,-8.63498881183731e+01°)
3.54813389233572e+07	(-2.19836344940982e+01dB,-8.71439521719389e+01°)
3.98107170553493e+07	(-2.29937340730783e+01dB,-8.78971404996385e+01°)
4.46683592150958e+07	(-2.40029582537285e+01dB,-8.86201495816191e+01°)
5.01187233627267e+07	(-2.50117925289155e+01dB,-8.93229987473647e+01°)
5.62341325190343e+07	(-2.60207019282763e+01dB,-9.00152160009825e+01°)
6.30957344480186e+07	(-2.70301546014569e+01dB,-9.07059900542410e+01°)
7.07945784384130e+07	(-2.80406453973586e+01dB,-9.14042941080437e+01°)
7.94328234724272e+07	(-2.90527204081812e+01dB,-9.21189837277714e+01°)
8.91250938133735e+07	(-3.00670034117714e+01dB,-9.28588682339636e+01°)
9.99999999999989e+07	(-3.10842250874368e+01dB,-9.36327520873198e+01°)
1.12201845430195e+08	(-3.21052557706072e+01dB,-9.44494395566540e+01°)
1.25892541179415e+08	(-3.31311423056848e+01dB,-9.53176923592972e+01°)
1.41253754462274e+08	(-3.41631491888753e+01dB,-9.62461258942218e+01°)
1.58489319246109e+08	(-3.52028035748098e+01dB,-9.72430252625608e+01°)
1.77827941003890e+08	(-3.62519427407341e+01dB,-9.83160578984426e+01°)
1.99526231496886e+08	(-3.73127611366556e+01dB,-9.94718562004060e+01°)
2.23872113856831e+08	(-3.83878520948354e+01dB,-1.00715442636990e+02°)
2.51188643150955e+08	(-3.94802366051456e+01dB,-1.02049473858037e+02°)
2.81838293126442e+08	(-4.05933684495113e+01dB,-1.03473292720266e+02°)
3.16227766016834e+08	(-4.17311019278580e+01dB,-1.04981801603984e+02°)
3.54813389233571e+08	(-4.28976063778675e+01dB,-1.06564209858162e+02°)
3.98107170553492e+08	(-4.40972121916361e+01dB,-1.08202762278151e+02°)
4.46683592150958e+08	(-4.53341778516558e+01dB,-1.09871617252128e+02°)
5.01187233627266e+08	(-4.66123780305979e+01dB,-1.11536096415194e+02°)
5.62341325190342e+08	(-4.79349288588124e+01dB,-1.13152547614599e+02°)
6.30957344480185e+08	(-4.93037851829861e+01dB,-1.14669023844828e+02°)
7.07945784384129e+08	(-5.07193602012322e+01dB,-1.16026869864971e+02°)
7.94328234724271e+08	(-5.21802231906546e+01dB,-1.17163141238364e+02°)
8.91250938133734e+08	(-5.36829213663464e+01dB,-1.18013606060118e+02°)
1.00000000000000e+09	(-5.52219483313839e+01dB,-1.18515962606589e+02°)
