Freq.	V(out)
1.00000000000000e+01	(-5.66910134068982e+01dB,2.03089842024881e-01°)
1.12201845430196e+01	(-5.66909992354380e+01dB,2.27870302400243e-01°)
1.25892541179417e+01	(-5.66909813948368e+01dB,2.55674333847908e-01°)
1.41253754462275e+01	(-5.66909589349433e+01dB,2.86870825589228e-01°)
1.58489319246111e+01	(-5.66909306598574e+01dB,3.21873660719070e-01°)
1.77827941003892e+01	(-5.66908950638184e+01dB,3.61147199085075e-01°)
1.99526231496888e+01	(-5.66908502513546e+01dB,4.05212426239268e-01°)
2.23872113856834e+01	(-5.66907938366256e+01dB,4.54653848493413e-01°)
2.51188643150958e+01	(-5.66907228156550e+01dB,5.10127223330367e-01°)
2.81838293126445e+01	(-5.66906334071989e+01dB,5.72368224790732e-01°)
3.16227766016838e+01	(-5.66905208513052e+01dB,6.42202154351855e-01°)
3.54813389233575e+01	(-5.66903791559239e+01dB,7.20554820053357e-01°)
3.98107170553497e+01	(-5.66902007786188e+01dB,8.08464719598191e-01°)
4.46683592150963e+01	(-5.66899762253539e+01dB,9.07096676756039e-01°)
5.01187233627272e+01	(-5.66896935459203e+01dB,1.01775709477372e+00°)
5.62341325190348e+01	(-5.66893376998734e+01dB,1.14191100488444e+00°)
6.30957344480192e+01	(-5.66888897576414e+01dB,1.28120110147343e+00°)
7.07945784384137e+01	(-5.66883258974630e+01dB,1.43746896824032e+00°)
7.94328234724280e+01	(-5.66876161435825e+01dB,1.61277870829911e+00°)
8.91250938133744e+01	(-5.66867227813480e+01dB,1.80944319546091e+00°)
9.99999999999998e+01	(-5.66855983662578e+01dB,2.03005315899653e+00°)
1.12201845430196e+02	(-5.66841832252308e+01dB,2.27750929657461e+00°)
1.25892541179416e+02	(-5.66824023236265e+01dB,2.55505757274762e+00°)
1.41253754462275e+02	(-5.66801613392511e+01dB,2.86632779327519e+00°)
1.58489319246111e+02	(-5.66773417503739e+01dB,3.21537543767438e+00°)
1.77827941003892e+02	(-5.66737946991381e+01dB,3.60672656347494e+00°)
1.99526231496888e+02	(-5.66693333415874e+01dB,4.04542534296185e+00°)
2.23872113856833e+02	(-5.66637233338759e+01dB,4.53708342142696e+00°)
2.51188643150957e+02	(-5.66566710412498e+01dB,5.08792975385826e+00°)
2.81838293126445e+02	(-5.66478089832366e+01dB,5.70485882271404e+00°)
3.16227766016837e+02	(-5.66366779650648e+01dB,6.39547409608717e+00°)
3.54813389233575e+02	(-5.66227052869993e+01dB,7.16812215796231e+00°)
3.98107170553496e+02	(-5.66051784087780e+01dB,8.03191104415859e+00°)
4.46683592150962e+02	(-5.65832134785799e+01dB,8.99670383384182e+00°)
5.01187233627271e+02	(-5.65557182984491e+01dB,1.00730754389411e+01°)
5.62341325190348e+02	(-5.65213496077176e+01dB,1.12722167726683e+01°)
6.30957344480192e+02	(-5.64784651698410e+01dB,1.26057662934707e+01°)
7.07945784384136e+02	(-5.64250720984784e+01dB,1.40855447321235e+01°)
7.94328234724279e+02	(-5.63587743291978e+01dB,1.57231656390340e+01°)
8.91250938133743e+02	(-5.62767241899192e+01dB,1.75294938647456e+01°)
9.99999999999997e+02	(-5.61755856706854e+01dB,1.95139287891608e+01°)
1.12201845430196e+03	(-5.60515200362916e+01dB,2.16835024453190e+01°)
1.25892541179416e+03	(-5.59002073043668e+01dB,2.40418083303898e+01°)
1.41253754462275e+03	(-5.57169187874142e+01dB,2.65878172273751e+01°)
1.58489319246111e+03	(-5.54966548194674e+01dB,2.93146906522038e+01°)
1.77827941003892e+03	(-5.52343561754135e+01dB,3.22087624234585e+01°)
1.99526231496887e+03	(-5.49251863168111e+01dB,3.52489067625501e+01°)
2.23872113856833e+03	(-5.45648649509563e+01dB,3.84065216613803e+01°)
2.51188643150957e+03	(-5.41500148064943e+01dB,4.16463038059194e+01°)
2.81838293126444e+03	(-5.36784692056607e+01dB,4.49278662542687e+01°)
3.16227766016837e+03	(-5.31494850697892e+01dB,4.82080725919112e+01°)
3.54813389233574e+03	(-5.25638187724835e+01dB,5.14437839468675e+01°)
3.98107170553496e+03	(-5.19236488961832e+01dB,5.45946038024264e+01°)
4.46683592150961e+03	(-5.12323621198579e+01dB,5.76252061253357e+01°)
5.01187233627270e+03	(-5.04942450124722e+01dB,6.05069445810499e+01°)
5.62341325190347e+03	(-4.97141371347254e+01dB,6.32186182755973e+01°)
6.30957344480190e+03	(-4.88970977786022e+01dB,6.57464466435209e+01°)
7.07945784384135e+03	(-4.80481242791296e+01dB,6.80834305501150e+01°)
7.94328234724278e+03	(-4.71719412408744e+01dB,7.02283284783075e+01°)
8.91250938133741e+03	(-4.62728634129048e+01dB,7.21844658534537e+01°)
9.99999999999995e+03	(-4.53547236247974e+01dB,7.39585474322501e+01°)
1.12201845430196e+04	(-4.44208516334263e+01dB,7.55595827681409e+01°)
1.25892541179416e+04	(-4.34740886829298e+01dB,7.69979805808542e+01°)
1.41253754462275e+04	(-4.25168242726569e+01dB,7.82848274411122e+01°)
1.58489319246111e+04	(-4.15510445136643e+01dB,7.94313406610380e+01°)
1.77827941003891e+04	(-4.05783844911142e+01dB,8.04484720252765e+01°)
1.99526231496887e+04	(-3.96001796905137e+01dB,8.13466343507513e+01°)
2.23872113856833e+04	(-3.86175135892506e+01dB,8.21355233905625e+01°)
2.51188643150957e+04	(-3.76312599676182e+01dB,8.28240107786428e+01°)
2.81838293126444e+04	(-3.66421194494924e+01dB,8.34200878603751e+01°)
3.16227766016836e+04	(-3.56506503638816e+01dB,8.39308444214584e+01°)
3.54813389233573e+04	(-3.46572943349534e+01dB,8.43624700334750e+01°)
3.98107170553495e+04	(-3.36623971492967e+01dB,8.47202687956474e+01°)
4.46683592150960e+04	(-3.26662254805953e+01dB,8.50086806661322e+01°)
5.01187233627269e+04	(-3.16689800185916e+01dB,8.52313043947816e+01°)
5.62341325190346e+04	(-3.06708054805595e+01dB,8.53909183913137e+01°)
6.30957344480189e+04	(-2.96717978980777e+01dB,8.54894967731894e+01°)
7.07945784384133e+04	(-2.86720094791008e+01dB,8.55282184131039e+01°)
7.94328234724276e+04	(-2.76714512514551e+01dB,8.55074671020148e+01°)
8.91250938133740e+04	(-2.66700935998417e+01dB,8.54268209943966e+01°)
9.99999999999993e+04	(-2.56678647147875e+01dB,8.52850293158885e+01°)
1.12201845430196e+05	(-2.46646468775254e+01dB,8.50799738774128e+01°)
1.25892541179416e+05	(-2.36602704080402e+01dB,8.48086122056316e+01°)
1.41253754462274e+05	(-2.26545050038193e+01dB,8.44668979878066e+01°)
1.58489319246110e+05	(-2.16470480949425e+01dB,8.40496729036517e+01°)
1.77827941003891e+05	(-2.06375097409926e+01dB,8.35505215774358e+01°)
1.99526231496886e+05	(-1.96253935073812e+01dB,8.29615780217689e+01°)
2.23872113856832e+05	(-1.86100727051859e+01dB,8.22732671053078e+01°)
2.51188643150956e+05	(-1.75907614038880e+01dB,8.14739575752898e+01°)
2.81838293126443e+05	(-1.65664798159333e+01dB,8.05494929795240e+01°)
3.16227766016835e+05	(-1.55360141689754e+01dB,7.94825519217874e+01°)
3.54813389233573e+05	(-1.44978723366826e+01dB,7.82517671516659e+01°)
3.98107170553494e+05	(-1.34502388869458e+01dB,7.68305006394327e+01°)
4.46683592150960e+05	(-1.23909379756724e+01dB,7.51851241833922e+01°)
5.01187233627268e+05	(-1.13174219034440e+01dB,7.32725859119929e+01°)
5.62341325190344e+05	(-1.02268215573847e+01dB,7.10369458062412e+01°)
6.30957344480188e+05	(-9.11613103108991e+00dB,6.84044376762724e+01°)
7.07945784384132e+05	(-7.98266926781324e+00dB,6.52764878702650e+01°)
7.94328234724275e+05	(-6.82509793146812e+00dB,6.15201122938372e+01°)
8.91250938133738e+05	(-5.64552846996504e+00dB,5.69556225545994e+01°)
9.99999999999991e+05	(-4.45367682641053e+00dB,5.13437584408693e+01°)
1.12201845430195e+06	(-3.27453639393563e+00dB,4.43811274031208e+01°)
1.25892541179416e+06	(-2.16082601338516e+00dB,3.57294677892399e+01°)
1.41253754462274e+06	(-1.20752229280232e+00dB,2.51315823170086e+01°)
1.58489319246110e+06	(-5.52922868564566e-01dB,1.26649033744182e+01°)
1.77827941003891e+06	(-3.36425322983051e-01dB,-9.71410442297490e-01°)
1.99526231496886e+06	(-6.14180903093303e-01dB,-1.45228328900569e+01°)
2.23872113856832e+06	(-1.31512592896623e+00dB,-2.67803358674249e+01°)
2.51188643150956e+06	(-2.29571900770291e+00dB,-3.71319050736548e+01°)
2.81838293126443e+06	(-3.42200136347838e+00dB,-4.55606167154431e+01°)
3.16227766016835e+06	(-4.60495866632114e+00dB,-5.23451519228313e+01°)
3.54813389233572e+06	(-5.79622786885920e+00dB,-5.78234612001282e+01°)
3.98107170553494e+06	(-6.97334152428624e+00dB,-6.22915226502335e+01°)
4.46683592150959e+06	(-8.12788456448275e+00dB,-6.59806981642405e+01°)
5.01187233627268e+06	(-9.25835922444420e+00dB,-6.90642886164362e+01°)
5.62341325190344e+06	(-1.03663620602153e+01dB,-7.16706131950354e+01°)
6.30957344480187e+06	(-1.14546575684597e+01dB,-7.38950103217475e+01°)
7.07945784384131e+06	(-1.25262536979899e+01dB,-7.58090894676398e+01°)
7.94328234724274e+06	(-1.35839871796362e+01dB,-7.74674247069738e+01°)
8.91250938133737e+06	(-1.46303620063374e+01dB,-7.89122832238114e+01°)
9.99999999999990e+06	(-1.56675099849163e+01dB,-8.01769449389029e+01°)
1.12201845430195e+07	(-1.66972071001401e+01dB,-8.12880388383708e+01°)
1.25892541179415e+07	(-1.77209125526278e+01dB,-8.22671989545084e+01°)
1.41253754462274e+07	(-1.87398142336610e+01dB,-8.31322495452782e+01°)
1.58489319246110e+07	(-1.97548730219451e+01dB,-8.38980629713181e+01°)
1.77827941003890e+07	(-2.07668626642899e+01dB,-8.45771884388329e+01°)
1.99526231496886e+07	(-2.17764041898155e+01dB,-8.51803189990305e+01°)
2.23872113856832e+07	(-2.27839948618087e+01dB,-8.57166433293277e+01°)
2.51188643150955e+07	(-2.37900321405825e+01dB,-8.61941146343035e+01°)
2.81838293126442e+07	(-2.47948333012422e+01dB,-8.66196593072822e+01°)
3.16227766016834e+07	(-2.57986513728593e+01dB,-8.69993413249922e+01°)
3.54813389233572e+07	(-2.68016880194622e+01dB,-8.73384937323740e+01°)
3.98107170553493e+07	(-2.78041039097627e+01dB,-8.76418253600637e+01°)
4.46683592150958e+07	(-2.88060270426311e+01dB,-8.79135086639676e+01°)
5.01187233627267e+07	(-2.98075594191759e+01dB,-8.81572529877963e+01°)
5.62341325190343e+07	(-3.08087823842299e+01dB,-8.83763664220349e+01°)
6.30957344480186e+07	(-3.18097609015019e+01dB,-8.85738086285216e+01°)
7.07945784384130e+07	(-3.28105469774690e+01dB,-8.87522364215809e+01°)
7.94328234724272e+07	(-3.38111824084796e+01dB,-8.89140434787518e+01°)
8.91250938133735e+07	(-3.48117009924322e+01dB,-8.90613952494629e+01°)
9.99999999999989e+07	(-3.58121303197172e+01dB,-8.91962599065301e+01°)
1.12201845430195e+08	(-3.68124932368532e+01dB,-8.93204360197810e+01°)
1.25892541179415e+08	(-3.78128090595251e+01dB,-8.94355775074049e+01°)
1.41253754462274e+08	(-3.88130945988414e+01dB,-8.95432163274068e+01°)
1.58489319246109e+08	(-3.98133650549432e+01dB,-8.96447833002353e+01°)
1.77827941003890e+08	(-4.08136348251995e+01dB,-8.97416273986640e+01°)
1.99526231496886e+08	(-4.18139182697525e+01dB,-8.98350337975573e+01°)
2.23872113856831e+08	(-4.28142304749298e+01dB,-8.99262409411585e+01°)
2.51188643150955e+08	(-4.38145880548926e+01dB,-9.00164568561223e+01°)
2.81838293126442e+08	(-4.48150100338339e+01dB,-9.01068749123597e+01°)
3.16227766016834e+08	(-4.58155188551534e+01dB,-9.01986892086291e+01°)
3.54813389233571e+08	(-4.68161415705055e+01dB,-9.02931097331634e+01°)
3.98107170553492e+08	(-4.78169112707196e+01dB,-9.03913774186372e+01°)
4.46683592150958e+08	(-4.88178688327163e+01dB,-9.04947791716591e+01°)
5.01187233627266e+08	(-4.98190650721686e+01dB,-9.06046629048975e+01°)
5.62341325190342e+08	(-5.08205634113653e+01dB,-9.07224525281604e+01°)
6.30957344480185e+08	(-5.18224431961696e+01dB,-9.08496627541794e+01°)
7.07945784384129e+08	(-5.28248038258111e+01dB,-9.09879134328813e+01°)
7.94328234724271e+08	(-5.38277698950900e+01dB,-9.11389429272913e+01°)
8.91250938133734e+08	(-5.48314975908054e+01dB,-9.13046197613544e+01°)
1.00000000000000e+09	(-5.58361826326809e+01dB,-9.14869513729104e+01°)
