Freq.	V(out)
1.00000000000000e+01	(-5.59359296145963e+01dB,1.05095117493259e-01°)
1.12201845430196e+01	(-5.59359258189451e+01dB,1.17918626875821e-01°)
1.25892541179417e+01	(-5.59359210405199e+01dB,1.32306826857366e-01°)
1.41253754462275e+01	(-5.59359150247776e+01dB,1.48450632709040e-01°)
1.58489319246111e+01	(-5.59359074515329e+01dB,1.66564252476926e-01°)
1.77827941003892e+01	(-5.59358979173163e+01dB,1.86888028123167e-01°)
1.99526231496888e+01	(-5.59358859144661e+01dB,2.09691622948942e-01°)
2.23872113856834e+01	(-5.59358708037508e+01dB,2.35277597343786e-01°)
2.51188643150958e+01	(-5.59358517807174e+01dB,2.63985420038992e-01°)
2.81838293126445e+01	(-5.59358278321716e+01dB,2.96195967620061e-01°)
3.16227766016838e+01	(-5.59357976830331e+01dB,3.32336571469773e-01°)
3.54813389233575e+01	(-5.59357597276687e+01dB,3.72886678169326e-01°)
3.98107170553497e+01	(-5.59357119452110e+01dB,4.18384197365149e-01°)
4.46683592150963e+01	(-5.59356517914067e+01dB,4.69432619529417e-01°)
5.01187233627272e+01	(-5.59355760635649e+01dB,5.26708995747283e-01°)
5.62341325190348e+01	(-5.59354807296161e+01dB,5.90972881941363e-01°)
6.30957344480192e+01	(-5.59353607142529e+01dB,6.63076361539799e-01°)
7.07945784384137e+01	(-5.59352096285892e+01dB,7.43975272692737e-01°)
7.94328234724280e+01	(-5.59350194304240e+01dB,8.34741779538463e-01°)
8.91250938133744e+01	(-5.59347799970358e+01dB,9.36578440863336e-01°)
9.99999999999998e+01	(-5.59344785869915e+01dB,1.05083394371595e+00°)
1.12201845430196e+02	(-5.59340991640413e+01dB,1.17902068403369e+00°)
1.25892541179416e+02	(-5.59336215459364e+01dB,1.32283438951759e+00°)
1.41253754462275e+02	(-5.59330203350317e+01dB,1.48417599186350e+00°)
1.58489319246111e+02	(-5.59322635736546e+01dB,1.66517596311478e+00°)
1.77827941003892e+02	(-5.59313110550589e+01dB,1.86822133299126e+00°)
1.99526231496888e+02	(-5.59301122020802e+01dB,2.09598559608042e+00°)
2.23872113856833e+02	(-5.59286034060585e+01dB,2.35146169563301e+00°)
2.51188643150957e+02	(-5.59267046894629e+01dB,2.63799822558915e+00°)
2.81838293126445e+02	(-5.59243155266088e+01dB,2.95933891633815e+00°)
3.16227766016837e+02	(-5.59213096163956e+01dB,3.31966534616730e+00°)
3.54813389233575e+02	(-5.59175283556432e+01dB,3.72364263125048e+00°)
3.98107170553496e+02	(-5.59127727067769e+01dB,4.17646756436049e+00°)
4.46683592150962e+02	(-5.59067930948300e+01dB,4.68391826236168e+00°)
5.01187233627271e+02	(-5.58992768970634e+01dB,5.25240379274001e+00°)
5.62341325190348e+02	(-5.58898330235756e+01dB,5.88901142520093e+00°)
6.30957344480192e+02	(-5.58779730175669e+01dB,6.60154801038737e+00°)
7.07945784384136e+02	(-5.58630880603832e+01dB,7.39857044119062e+00°)
7.94328234724279e+02	(-5.58444212603933e+01dB,8.28939810031325e+00°)
8.91250938133743e+02	(-5.58210346643277e+01dB,9.28409754127739e+00°)
9.99999999999997e+02	(-5.57917706308894e+01dB,1.03934263584029e+01°)
1.12201845430196e+03	(-5.57552075851447e+01dB,1.16287192920435e+01°)
1.25892541179416e+03	(-5.57096108588835e+01dB,1.30016953619010e+01°)
1.41253754462275e+03	(-5.56528804116662e+01dB,1.45241608001788e+01°)
1.58489319246111e+03	(-5.55824988439530e+01dB,1.62075799110618e+01°)
1.77827941003892e+03	(-5.54954853386069e+01dB,1.80624866241410e+01°)
1.99526231496887e+03	(-5.53883639564338e+01dB,2.00977162460089e+01°)
2.23872113856833e+03	(-5.52571577821759e+01dB,2.23194533168615e+01°)
2.51188643150957e+03	(-5.50974230885807e+01dB,2.47301211157524e+01°)
2.81838293126444e+03	(-5.49043387723498e+01dB,2.73271830846999e+01°)
3.16227766016837e+03	(-5.46728641446110e+01dB,3.01019834834165e+01°)
3.54813389233574e+03	(-5.43979710128740e+01dB,3.30388133117187e+01°)
3.98107170553496e+03	(-5.40749429973458e+01dB,3.61144277660444e+01°)
4.46683592150961e+03	(-5.36997173610727e+01dB,3.92982365035643e+01°)
5.01187233627270e+03	(-5.32692265219973e+01dB,4.25533152112752e+01°)
5.62341325190347e+03	(-5.27816845915234e+01dB,4.58382437484793e+01°)
6.30957344480190e+03	(-5.22367655047271e+01dB,4.91095923168071e+01°)
7.07945784384135e+03	(-5.16356364416963e+01dB,5.23247117060633e+01°)
7.94328234724278e+03	(-5.09808394833607e+01dB,5.54444005108770e+01°)
8.91250938133741e+03	(-5.02760461453494e+01dB,5.84350561632882e+01°)
9.99999999999995e+03	(-4.95257326948568e+01dB,6.12700532643357e+01°)
1.12201845430196e+04	(-4.87348322799311e+01dB,6.39302768187462e+01°)
1.25892541179416e+04	(-4.79084130375217e+01dB,6.64039044759654e+01°)
1.41253754462275e+04	(-4.70514150491730e+01dB,6.86856366114200e+01°)
1.58489319246111e+04	(-4.61684604592401e+01dB,7.07756054464513e+01°)
1.77827941003891e+04	(-4.52637357396260e+01dB,7.26781704075959e+01°)
1.99526231496887e+04	(-4.43409354195005e+01dB,7.44007531945035e+01°)
2.23872113856833e+04	(-4.34032524626865e+01dB,7.59528063911591e+01°)
2.51188643150957e+04	(-4.24534003697896e+01dB,7.73449586373687e+01°)
2.81838293126444e+04	(-4.14936542451151e+01dB,7.85883432399488e+01°)
3.16227766016836e+04	(-4.05259010784932e+01dB,7.96940953280827e+01°)
3.54813389233573e+04	(-3.95516924583273e+01dB,8.06729921942154e+01°)
3.98107170553495e+04	(-3.85722954168493e+01dB,8.15352085583986e+01°)
4.46683592150960e+04	(-3.75887389848353e+01dB,8.22901599853084e+01°)
5.01187233627269e+04	(-3.66018553390420e+01dB,8.29464112694272e+01°)
5.62341325190346e+04	(-3.56123152699033e+01dB,8.35116308379666e+01°)
6.30957344480189e+04	(-3.46206581996072e+01dB,8.39925763001327e+01°)
7.07945784384133e+04	(-3.36273172478204e+01dB,8.43950998198512e+01°)
7.94328234724276e+04	(-3.26326399563614e+01dB,8.47241648887913e+01°)
8.91250938133740e+04	(-3.16369053053992e+01dB,8.49838683433122e+01°)
9.99999999999993e+04	(-3.06403376226292e+01dB,8.51774631823371e+01°)
1.12201845430196e+05	(-2.96431179304590e+01dB,8.53073790014995e+01°)
1.25892541179416e+05	(-2.86453932105691e+01dB,8.53752377535487e+01°)
1.41253754462274e+05	(-2.76472840004349e+01dB,8.53818631609777e+01°)
1.58489319246110e+05	(-2.66488906776620e+01dB,8.53272825043775e+01°)
1.77827941003891e+05	(-2.56502987382461e+01dB,8.52107197436776e+01°)
1.99526231496886e+05	(-2.46515833356492e+01dB,8.50305790300450e+01°)
2.23872113856832e+05	(-2.36528133194967e+01dB,8.47844176607870e+01°)
2.51188643150956e+05	(-2.26540549968499e+01dB,8.44689074280933e+01°)
2.81838293126443e+05	(-2.16553758367071e+01dB,8.40797831207491e+01°)
3.16227766016835e+05	(-2.06568483521677e+01dB,8.36117766493659e+01°)
3.54813389233573e+05	(-1.96585544288224e+01dB,8.30585348678601e+01°)
3.98107170553494e+05	(-1.86605904294657e+01dB,8.24125186360224e+01°)
4.46683592150960e+05	(-1.76630735051387e+01dB,8.16648799819695e+01°)
5.01187233627268e+05	(-1.66661496983319e+01dB,8.08053133478247e+01°)
5.62341325190344e+05	(-1.56700046624812e+01dB,7.98218758092337e+01°)
6.30957344480188e+05	(-1.46748781837478e+01dB,7.87007698412400e+01°)
7.07945784384132e+05	(-1.36810842382514e+01dB,7.74260807051216e+01°)
7.94328234724275e+05	(-1.26890391427311e+01dB,7.59794590200552e+01°)
8.91250938133738e+05	(-1.16993015938795e+01dB,7.43397379741710e+01°)
9.99999999999991e+05	(-1.07126302316968e+01dB,7.24824748348955e+01°)
1.12201845430195e+06	(-9.73006705966153e+00dB,7.03794097479335e+01°)
1.25892541179416e+06	(-8.75305891246534e+00dB,6.79978448026423e+01°)
1.41253754462274e+06	(-7.78363445437644e+00dB,6.52999694011280e+01°)
1.58489319246110e+06	(-6.82466092055819e+00dB,6.22422053989713e+01°)
1.77827941003891e+06	(-5.88021211272611e+00dB,5.87747358044644e+01°)
1.99526231496886e+06	(-4.95608397435068e+00dB,5.48415413468808e+01°)
2.23872113856832e+06	(-4.06048861428832e+00dB,5.03815320549760e+01°)
2.51188643150956e+06	(-3.20492542541901e+00dB,4.53317408117473e+01°)
2.81838293126443e+06	(-2.40514016353831e+00dB,3.96339744430947e+01°)
3.16227766016835e+06	(-1.68190371598877e+00dB,3.32465052707517e+01°)
3.54813389233572e+06	(-1.06106449082144e+00dB,2.61616408514774e+01°)
3.98107170553494e+06	(-5.72064246312031e-01dB,1.84272997538982e+01°)
4.46683592150959e+06	(-2.44196111305032e-01dB,1.01656581150100e+01°)
5.01187233627268e+06	(-1.00781136112924e-01dB,1.57699501130986e+00°)
5.62341325190344e+06	(-1.53085515749480e-01dB,-7.08166566541580e+00°)
6.30957344480187e+06	(-3.96936171369309e-01dB,-1.55412328028189e+01°)
7.07945784384131e+06	(-8.14009972100286e-01dB,-2.35706972699620e+01°)
7.94328234724274e+06	(-1.37702016688878e+00dB,-3.10107255585801e+01°)
8.91250938133737e+06	(-2.05599210976914e+00dB,-3.77808470598423e+01°)
9.99999999999990e+06	(-2.82309477799281e+00dB,-4.38661304750290e+01°)
1.12201845430195e+07	(-3.65512621023083e+00dB,-4.92957651926929e+01°)
1.25892541179415e+07	(-4.53407313673211e+00dB,-5.41231295569151e+01°)
1.41253754462274e+07	(-5.44658675917213e+00dB,-5.84113540337542e+01°)
1.58489319246110e+07	(-6.38306104005030e+00dB,-6.22245078922899e+01°)
1.77827941003890e+07	(-7.33670241029040e+00dB,-6.56230001305157e+01°)
1.99526231496886e+07	(-8.30275087449965e+00dB,-6.86616502380903e+01°)
2.23872113856832e+07	(-9.27788599857602e+00dB,-7.13892566896586e+01°)
2.51188643150955e+07	(-1.02597973593973e+01dB,-7.38489115356200e+01°)
2.81838293126442e+07	(-1.12468838156241e+01dB,-7.60786280403226e+01°)
3.16227766016834e+07	(-1.22380473864098e+01dB,-7.81120528993409e+01°)
3.54813389233572e+07	(-1.32325542927347e+01dB,-7.99791537197148e+01°)
3.98107170553493e+07	(-1.42299429611576e+01dB,-8.17068368880711e+01°)
4.46683592150958e+07	(-1.52299648450829e+01dB,-8.33194832679234e+01°)
5.01187233627267e+07	(-1.62325484855941e+01dB,-8.48394036916585e+01°)
5.62341325190343e+07	(-1.72377805014635e+01dB,-8.62872213154220e+01°)
6.30957344480186e+07	(-1.82458994655284e+01dB,-8.76821882059348e+01°)
7.07945784384130e+07	(-1.92573001622084e+01dB,-8.90424414324480e+01°)
7.94328234724272e+07	(-2.02725467290155e+01dB,-9.03852006180016e+01°)
8.91250938133735e+07	(-2.12923937917175e+01dB,-9.17269048740806e+01°)
9.99999999999989e+07	(-2.23178149718413e+01dB,-9.30832825029233e+01°)
1.12201845430195e+08	(-2.33500380836030e+01dB,-9.44693419157047e+01°)
1.25892541179415e+08	(-2.43905859035939e+01dB,-9.58992670894238e+01°)
1.41253754462274e+08	(-2.54413205104617e+01dB,-9.73861960555902e+01°)
1.58489319246109e+08	(-2.65044877539076e+01dB,-9.89418573566339e+01°)
1.77827941003890e+08	(-2.75827563430510e+01dB,-1.00576038821485e+02°)
1.99526231496886e+08	(-2.86792433565296e+01dB,-1.02295868001058e+02°)
2.23872113856831e+08	(-2.97975148914639e+01dB,-1.04104897618162e+02°)
2.51188643150955e+08	(-3.09415476657224e+01dB,-1.06002016146454e+02°)
2.81838293126442e+08	(-3.21156357452758e+01dB,-1.07980245647414e+02°)
3.16227766016834e+08	(-3.33242277694437e+01dB,-1.10025544945067e+02°)
3.54813389233571e+08	(-3.45716858777498e+01dB,-1.12115797642623e+02°)
3.98107170553492e+08	(-3.58619692115237e+01dB,-1.14220213435263e+02°)
4.46683592150958e+08	(-3.71982618055715e+01dB,-1.16299381906067e+02°)
5.01187233627266e+08	(-3.85825834807074e+01dB,-1.18306165655335e+02°)
5.62341325190342e+08	(-4.00154367718036e+01dB,-1.20187495390371e+02°)
6.30957344480185e+08	(-4.14955460065608e+01dB,-1.21886954996451e+02°)
7.07945784384129e+08	(-4.30197324008141e+01dB,-1.23347872523364e+02°)
7.94328234724271e+08	(-4.45829437378519e+01dB,-1.24516527741197e+02°)
8.91250938133734e+08	(-4.61784274882225e+01dB,-1.25345090435482e+02°)
1.00000000000000e+09	(-4.77980131053616e+01dB,-1.25794010112769e+02°)
