Freq.	V(out)
1.00000000000000e+01	(2.01397378508186e+00dB,-1.37837384652258e+00°)
1.12201845430196e+01	(2.01332201700484e+00dB,-1.54648363130657e+00°)
1.25892541179417e+01	(2.01250162867753e+00dB,-1.73507396830268e+00°)
1.41253754462275e+01	(2.01146904126861e+00dB,-1.94663071218445e+00°)
1.58489319246111e+01	(2.01016943973932e+00dB,-2.18393762497709e+00°)
1.77827941003892e+01	(2.00853389112618e+00dB,-2.45011050382751e+00°)
1.99526231496888e+01	(2.00647573284972e+00dB,-2.74863456423844e+00°)
2.23872113856834e+01	(2.00388605123064e+00dB,-3.08340510735795e+00°)
2.51188643150958e+01	(2.00062802943729e+00dB,-3.45877135615654e+00°)
2.81838293126445e+01	(1.99652989529171e+00dB,-3.87958312696980e+00°)
3.16227766016838e+01	(1.99137614271000e+00dB,-4.35123968011710e+00°)
3.54813389233575e+01	(1.98489663684789e+00dB,-4.87973962619621e+00°)
3.98107170553497e+01	(1.97675314413743e+00dB,-5.47173010083870e+00°)
4.46683592150963e+01	(1.96652275910153e+00dB,-6.13455249330938e+00°)
5.01187233627272e+01	(1.95367763974665e+00dB,-6.87628074122548e+00°)
5.62341325190348e+01	(1.93756042719201e+00dB,-7.70574648983936e+00°)
6.30957344480192e+01	(1.91735473921737e+00dB,-8.63254316070296e+00°)
7.07945784384137e+01	(1.89205023079636e+00dB,-9.66699809853948e+00°)
7.94328234724280e+01	(1.86040196527058e+00dB,-1.08200984412635e+01°)
8.91250938133744e+01	(1.82088431867848e+00dB,-1.21033522896387e+01°)
9.99999999999998e+01	(1.77164045055869e+00dB,-1.35285624876603e+01°)
1.12201845430196e+02	(1.71042963789838e+00dB,-1.51074866227166e+01°)
1.25892541179416e+02	(1.63457659421717e+00dB,-1.68513551014360e+01°)
1.41253754462275e+02	(1.54092933224894e+00dB,-1.87702215699203e+01°)
1.58489319246111e+02	(1.42583506599174e+00dB,-2.08721296436754e+01°)
1.77827941003892e+02	(1.28514668069191e+00dB,-2.31621005945909e+01°)
1.99526231496888e+02	(1.11427457916515e+00dB,-2.56409815313239e+01°)
2.23872113856833e+02	(9.08298858700735e-01dB,-2.83042433046056e+01°)
2.51188643150957e+02	(6.62153036145305e-01dB,-3.11408767051804e+01°)
2.81838293126445e+02	(3.70881361026896e-01dB,-3.41325905246931e+01°)
3.16227766016837e+02	(2.99568431075702e-02dB,-3.72535425340634e+01°)
3.54813389233575e+02	(-3.64371336086463e-01dB,-4.04708075726377e+01°)
3.98107170553496e+02	(-8.14749108372665e-01dB,-4.37456882317761e+01°)
4.46683592150962e+02	(-1.32246348111556e+00dB,-4.70358109684894e+01°)
5.01187233627271e+02	(-1.88731236851219e+00dB,-5.02977654689491e+01°)
5.62341325190348e+02	(-2.50762530606303e+00dB,-5.34899020649382e+01°)
6.30957344480192e+02	(-3.18043067012673e+00dB,-5.65748583301288e+01°)
7.07945784384136e+02	(-3.90173515843733e+00dB,-5.95214601855614e+01°)
7.94328234724279e+02	(-4.66686291272634e+00dB,-6.23058036959782e+01°)
8.91250938133743e+02	(-5.47079915926129e+00dB,-6.49115085384240e+01°)
9.99999999999997e+02	(-6.30849421843046e+00dB,-6.73292823041446e+01°)
1.12201845430196e+03	(-7.17510160767091e+00dB,-6.95560136777749e+01°)
1.25892541179416e+03	(-8.06614185974717e+00dB,-7.15936224101899e+01°)
1.41253754462275e+03	(-8.97759714490847e+00dB,-7.34478564694459e+01°)
1.58489319246111e+03	(-9.90594939802594e+00dB,-7.51271686506160e+01°)
1.77827941003892e+03	(-1.08481771701283e+01dB,-7.66417472066651e+01°)
1.99526231496887e+03	(-1.18017255422408e+01dB,-7.80027291303903e+01°)
2.23872113856833e+03	(-1.27644608434793e+01dB,-7.92215938534871e+01°)
2.51188643150957e+03	(-1.37346188453242e+01dB,-8.03097177539409e+01°)
2.81838293126444e+03	(-1.47107522755811e+01dB,-8.12780624652064e+01°)
3.16227766016837e+03	(-1.56916812203105e+01dB,-8.21369689486222e+01°)
3.54813389233574e+03	(-1.66764483152444e+01dB,-8.28960317387692e+01°)
3.98107170553496e+03	(-1.76642794963873e+01dB,-8.35640317220129e+01°)
4.46683592150961e+03	(-1.86545503683655e+01dB,-8.41489100654779e+01°)
5.01187233627270e+03	(-1.96467578379589e+01dB,-8.46577698472905e+01°)
5.62341325190347e+03	(-2.06404964539218e+01dB,-8.50968952812010e+01°)
6.30957344480190e+03	(-2.16354388163485e+01dB,-8.54717811204865e+01°)
7.07945784384135e+03	(-2.26313194173397e+01dB,-8.57871669138991e+01°)
7.94328234724278e+03	(-2.36279213140965e+01dB,-8.60470723607508e+01°)
8.91250938133741e+03	(-2.46250650934265e+01dB,-8.62548311730183e+01°)
9.99999999999995e+03	(-2.56225996478278e+01dB,-8.64131216927890e+01°)
1.12201845430196e+04	(-2.66203943418105e+01dB,-8.65239931127758e+01°)
1.25892541179416e+04	(-2.76183321963200e+01dB,-8.65888865711885e+01°)
1.41253754462275e+04	(-2.86163037582110e+01dB,-8.66086506917172e+01°)
1.58489319246111e+04	(-2.96142013497320e+01dB,-8.65835513560575e+01°)
1.77827941003891e+04	(-3.06119134082297e+01dB,-8.65132756643468e+01°)
1.99526231496887e+04	(-3.16093186305855e+01dB,-8.63969301866929e+01°)
2.23872113856833e+04	(-3.26062796289769e+01dB,-8.62330337638236e+01°)
2.51188643150957e+04	(-3.36026357843804e+01dB,-8.60195053044311e+01°)
2.81838293126444e+04	(-3.45981949537322e+01dB,-8.57536472813199e+01°)
3.16227766016836e+04	(-3.55927236437507e+01dB,-8.54321259857566e+01°)
3.54813389233573e+04	(-3.65859352137193e+01dB,-8.50509501042774e+01°)
3.98107170553495e+04	(-3.75774756115085e+01dB,-8.46054498931398e+01°)
4.46683592150960e+04	(-3.85669060898086e+01dB,-8.40902602133254e+01°)
5.01187233627269e+04	(-3.95536823025629e+01dB,-8.34993120397750e+01°)
5.62341325190346e+04	(-4.05371291629317e+01dB,-8.28258388694736e+01°)
6.30957344480189e+04	(-4.15164108822985e+01dB,-8.20624068217938e+01°)
7.07945784384133e+04	(-4.24904957479399e+01dB,-8.12009802259745e+01°)
7.94328234724276e+04	(-4.34581154976168e+01dB,-8.02330381308411e+01°)
8.91250938133740e+04	(-4.44177196985370e+01dB,-7.91497613087458e+01°)
9.99999999999993e+04	(-4.53674264450563e+01dB,-7.79423135427950e+01°)
1.12201845430196e+05	(-4.63049720752070e+01dB,-7.66022444151716e+01°)
1.25892541179416e+05	(-4.72276645748242e+01dB,-7.51220419169877e+01°)
1.41253754462274e+05	(-4.81323479187049e+01dB,-7.34958595696695e+01°)
1.58489319246110e+05	(-4.90153876333262e+01dB,-7.17204311035848e+01°)
1.77827941003891e+05	(-4.98726908798327e+01dB,-6.97961623362971e+01°)
1.99526231496886e+05	(-5.06997763958981e+01dB,-6.77283517935727e+01°)
2.23872113856832e+05	(-5.14919092287035e+01dB,-6.55284390418470e+01°)
2.51188643150956e+05	(-5.22443105643293e+01dB,-6.32151192780838e+01°)
2.81838293126443e+05	(-5.29524426991961e+01dB,-6.08151102742751e+01°)
3.16227766016835e+05	(-5.36123533993357e+01dB,-5.83633377810624e+01°)
3.54813389233573e+05	(-5.42210453231865e+01dB,-5.59023441153695e+01°)
3.98107170553494e+05	(-5.47768206029579e+01dB,-5.34808355542110e+01°)
4.46683592150960e+05	(-5.52795452490127e+01dB,-5.11514529689427e+01°)
5.01187233627268e+05	(-5.57307878354823e+01dB,-4.89680292406809e+01°)
5.62341325190344e+05	(-5.61338112673894e+01dB,-4.69827206764360e+01°)
6.30957344480188e+05	(-5.64934278601685e+01dB,-4.52434161247678e+01°)
7.07945784384132e+05	(-5.68157553227148e+01dB,-4.37917284201040e+01°)
7.94328234724275e+05	(-5.71079252320593e+01dB,-4.26616986358406e+01°)
8.91250938133738e+05	(-5.73777930919773e+01dB,-4.18791611171254e+01°)
9.99999999999991e+05	(-5.76336835939281e+01dB,-4.14615849728755e+01°)
1.12201845430195e+06	(-5.78841832681489e+01dB,-4.14181561728224e+01°)
1.25892541179416e+06	(-5.81379725429069e+01dB,-4.17498898956284e+01°)
1.41253754462274e+06	(-5.84036750330358e+01dB,-4.24496460049459e+01°)
1.58489319246110e+06	(-5.86896961781178e+01dB,-4.35020332644199e+01°)
1.77827941003891e+06	(-5.90040268511862e+01dB,-4.48833037925701e+01°)
1.99526231496886e+06	(-5.93539998143589e+01dB,-4.65614321554242e+01°)
2.23872113856832e+06	(-5.97460060016130e+01dB,-4.84966153781713e+01°)
2.51188643150956e+06	(-6.01851992894442e+01dB,-5.06423984194550e+01°)
2.81838293126443e+06	(-6.06752360547220e+01dB,-5.29475155100964e+01°)
3.16227766016835e+06	(-6.12181019785702e+01dB,-5.53583630782103e+01°)
3.54813389233572e+06	(-6.18140685510445e+01dB,-5.78218371629199e+01°)
3.98107170553494e+06	(-6.24617969385210e+01dB,-6.02881459200789e+01°)
4.46683592150959e+06	(-6.31585753819206e+01dB,-6.27131950795749e+01°)
5.01187233627268e+06	(-6.39006493320476e+01dB,-6.50602450474734e+01°)
5.62341325190344e+06	(-6.46835898665619e+01dB,-6.73007106655611e+01°)
6.30957344480187e+06	(-6.55026479801993e+01dB,-6.94141509011639e+01°)
7.07945784384131e+06	(-6.63530561019048e+01dB,-7.13876236395025e+01°)
7.94328234724274e+06	(-6.72302566646611e+01dB,-7.32146364069978e+01°)
8.91250938133737e+06	(-6.81300544010513e+01dB,-7.48939157298401e+01°)
9.99999999999990e+06	(-6.90487007311045e+01dB,-7.64281709795519e+01°)
1.12201845430195e+07	(-6.99829245095116e+01dB,-7.78229680544412e+01°)
1.25892541179415e+07	(-7.09299246635398e+01dB,-7.90857729802333e+01°)
1.41253754462274e+07	(-7.18873386535976e+01dB,-8.02251836183410e+01°)
1.58489319246110e+07	(-7.28531978033697e+01dB,-8.12503409539089e+01°)
1.77827941003890e+07	(-7.38258774567663e+01dB,-8.21704972655951e+01°)
1.99526231496886e+07	(-7.48040472053185e+01dB,-8.29947132633537e+01°)
2.23872113856832e+07	(-7.57866243110481e+01dB,-8.37316564889956e+01°)
2.51188643150955e+07	(-7.67727319318393e+01dB,-8.43894762940041e+01°)
2.81838293126442e+07	(-7.77616627459269e+01dB,-8.49757349020055e+01°)
3.16227766016834e+07	(-7.87528479488192e+01dB,-8.54973782237538e+01°)
3.54813389233572e+07	(-7.97458312459378e+01dB,-8.59607339162299e+01°)
3.98107170553493e+07	(-8.07402472961541e+01dB,-8.63715273395211e+01°)
4.46683592150958e+07	(-8.17358040071126e+01dB,-8.67349085887993e+01°)
5.01187233627267e+07	(-8.27322680954572e+01dB,-8.70554857401761e+01°)
5.62341325190343e+07	(-8.37294533725376e+01dB,-8.73373608921625e+01°)
6.30957344480186e+07	(-8.47272112791144e+01dB,-8.75841666811473e+01°)
7.07945784384130e+07	(-8.57254232592609e+01dB,-8.77991017208111e+01°)
7.94328234724272e+07	(-8.67239946274692e+01dB,-8.79849639644257e+01°)
8.91250938133735e+07	(-8.77228496406215e+01dB,-8.81441813799576e+01°)
9.99999999999989e+07	(-8.87219275367050e+01dB,-8.82788395883515e+01°)
1.12201845430195e+08	(-8.97211793447397e+01dB,-8.83907062954482e+01°)
1.25892541179415e+08	(-9.07205653058148e+01dB,-8.84812524552607e+01°)
1.41253754462274e+08	(-9.17200527740909e+01dB,-8.85516701752205e+01°)
1.58489319246109e+08	(-9.27196144899166e+01dB,-8.86028874078370e+01°)
1.77827941003890e+08	(-9.37192271355942e+01dB,-8.86355794889302e+01°)
1.99526231496886e+08	(-9.47188700984839e+01dB,-8.86501775837098e+01°)
2.23872113856831e+08	(-9.57185243766258e+01dB,-8.86468740910469e+01°)
2.51188643150955e+08	(-9.67181715693105e+01dB,-8.86256250389050e+01°)
2.81838293126442e+08	(-9.77177928993838e+01dB,-8.85861494844622e+01°)
3.16227766016834e+08	(-9.87173682156897e+01dB,-8.85279259083283e+01°)
3.54813389233571e+08	(-9.97168749230566e+01dB,-8.84501855712069e+01°)
3.98107170553492e+08	(-1.00716286783493e+02dB,-8.83519027753729e+01°)
4.46683592150958e+08	(-1.01715572525740e+02dB,-8.82317819603810e+01°)
5.01187233627266e+08	(-1.02714694190564e+02dB,-8.80882415423794e+01°)
5.62341325190342e+08	(-1.03713605125982e+02dB,-8.79193944093563e+01°)
6.30957344480185e+08	(-1.04712247529201e+02dB,-8.77230249871377e+01°)
7.07945784384129e+08	(-1.05710549409993e+02dB,-8.74965628226624e+01°)
7.94328234724271e+08	(-1.06708420822683e+02dB,-8.72370526875809e+01°)
8.91250938133734e+08	(-1.07705749180017e+02dB,-8.69411212997722e+01°)
1.00000000000000e+09	(-1.08702393421348e+02dB,-8.66049409165821e+01°)
