Freq.	V(out)
1.00000000000000e+01	(-5.13998890893433e+01dB,1.79937328295630e+02°)
1.12201845430196e+01	(-5.13998877514273e+01dB,1.79929681198335e+02°)
1.25892541179417e+01	(-5.13998860670541e+01dB,1.79921101017020e+02°)
1.41253754462275e+01	(-5.13998839465738e+01dB,1.79911473899438e+02°)
1.58489319246111e+01	(-5.13998812771124e+01dB,1.79900672101776e+02°)
1.77827941003892e+01	(-5.13998779163969e+01dB,1.79888552293832e+02°)
1.99526231496888e+01	(-5.13998736855673e+01dB,1.79874953657482e+02°)
2.23872113856834e+01	(-5.13998683592291e+01dB,1.79859695753249e+02°)
2.51188643150958e+01	(-5.13998616537462e+01dB,1.79842576126722e+02°)
2.81838293126445e+01	(-5.13998532121191e+01dB,1.79823367623158e+02°)
3.16227766016838e+01	(-5.13998425846791e+01dB,1.79801815374760e+02°)
3.54813389233575e+01	(-5.13998292056112e+01dB,1.79777633420826e+02°)
3.98107170553497e+01	(-5.13998123623855e+01dB,1.79750500916187e+02°)
4.46683592150963e+01	(-5.13997911581914e+01dB,1.79720057877956e+02°)
5.01187233627272e+01	(-5.13997644638272e+01dB,1.79685900414678e+02°)
5.62341325190348e+01	(-5.13997308577989e+01dB,1.79647575375266e+02°)
6.30957344480192e+01	(-5.13996885506952e+01dB,1.79604574347730e+02°)
7.07945784384137e+01	(-5.13996352898110e+01dB,1.79556326929483e+02°)
7.94328234724280e+01	(-5.13995682392883e+01dB,1.79502193181923e+02°)
8.91250938133744e+01	(-5.13994838291081e+01dB,1.79441455172005e+02°)
9.99999999999998e+01	(-5.13993775653147e+01dB,1.79373307492534e+02°)
1.12201845430196e+02	(-5.13992437909345e+01dB,1.79296846641047e+02°)
1.25892541179416e+02	(-5.13990753846601e+01dB,1.79211059124341e+02°)
1.41253754462275e+02	(-5.13988633830689e+01dB,1.79114808141900e+02°)
1.58489319246111e+02	(-5.13985965036225e+01dB,1.79006818687595e+02°)
1.77827941003892e+02	(-5.13982605455970e+01dB,1.78885660894166e+02°)
1.99526231496888e+02	(-5.13978376364908e+01dB,1.78749731431132e+02°)
2.23872113856833e+02	(-5.13973052839018e+01dB,1.78597232753910e+02°)
2.51188643150957e+02	(-5.13966351845624e+01dB,1.78426149991450e+02°)
2.81838293126445e+02	(-5.13957917265265e+01dB,1.78234225254502e+02°)
3.16227766016837e+02	(-5.13947301085380e+01dB,1.78018929148193e+02°)
3.54813389233575e+02	(-5.13933939795578e+01dB,1.77777429286487e+02°)
3.98107170553496e+02	(-5.13917124771575e+01dB,1.77506555637974e+02°)
4.46683592150962e+02	(-5.13895965163309e+01dB,1.77202762590010e+02°)
5.01187233627271e+02	(-5.13869341444843e+01dB,1.76862087714758e+02°)
5.62341325190348e+02	(-5.13835847359533e+01dB,1.76480107371792e+02°)
6.30957344480192e+02	(-5.13793717500261e+01dB,1.76051889511005e+02°)
7.07945784384136e+02	(-5.13740737195191e+01dB,1.75571944376589e+02°)
7.94328234724279e+02	(-5.13674130710787e+01dB,1.75034174300949e+02°)
8.91250938133743e+02	(-5.13590423102454e+01dB,1.74431824468214e+02°)
9.99999999999997e+02	(-5.13485270357817e+01dB,1.73757437490979e+02°)
1.12201845430196e+03	(-5.13353251880758e+01dB,1.73002815964712e+02°)
1.25892541179416e+03	(-5.13187619060715e+01dB,1.72158998937435e+02°)
1.41253754462275e+03	(-5.12979993894630e+01dB,1.71216260555728e+02°)
1.58489319246111e+03	(-5.12720012796731e+01dB,1.70164142103105e+02°)
1.77827941003892e+03	(-5.12394913474788e+01dB,1.68991532243355e+02°)
1.99526231496887e+03	(-5.11989067869586e+01dB,1.67686814398752e+02°)
2.23872113856833e+03	(-5.11483472760707e+01dB,1.66238104438024e+02°)
2.51188643150957e+03	(-5.10855222869620e+01dB,1.64633605406858e+02°)
2.81838293126444e+03	(-5.10077010313338e+01dB,1.62862107414534e+02°)
3.16227766016837e+03	(-5.09116719300627e+01dB,1.60913657684287e+02°)
3.54813389233574e+03	(-5.07937214752016e+01dB,1.58780414951831e+02°)
3.98107170553496e+03	(-5.06496453508528e+01dB,1.56457680143025e+02°)
4.46683592150961e+03	(-5.04748067827510e+01dB,1.53945058539398e+02°)
5.01187233627270e+03	(-5.02642568635423e+01dB,1.51247657352565e+02°)
5.62341325190347e+03	(-5.00129272747145e+01dB,1.48377162881651e+02°)
6.30957344480190e+03	(-4.97158959371138e+01dB,1.45352588348763e+02°)
7.07945784384135e+03	(-4.93687106026748e+01dB,1.42200461191678e+02°)
7.94328234724278e+03	(-4.89677368154555e+01dB,1.38954253533544e+02°)
8.91250938133741e+03	(-4.85104805960949e+01dB,1.35652967029152e+02°)
9.99999999999995e+03	(-4.79958298328873e+01dB,1.32338951470302e+02°)
1.12201845430196e+04	(-4.74241671025128e+01dB,1.29055220084835e+02°)
1.25892541179416e+04	(-4.67973303868400e+01dB,1.25842658027448e+02°)
1.41253754462275e+04	(-4.61184299704201e+01dB,1.22737550002708e+02°)
1.58489319246111e+04	(-4.53915587340286e+01dB,1.19769765768504e+02°)
1.77827941003891e+04	(-4.46214496153403e+01dB,1.16961774906576e+02°)
1.99526231496887e+04	(-4.38131346422900e+01dB,1.14328479033009e+02°)
2.23872113856833e+04	(-4.29716477475134e+01dB,1.11877708740163e+02°)
2.51188643150957e+04	(-4.21017953620442e+01dB,1.09611162565324e+02°)
2.81838293126444e+04	(-4.12080012472138e+01dB,1.07525562499142e+02°)
3.16227766016836e+04	(-4.02942192397233e+01dB,1.05613841921162e+02°)
3.54813389233573e+04	(-3.93639006540104e+01dB,1.03866240815257e+02°)
3.98107170553495e+04	(-3.84200010710448e+01dB,1.02271239809739e+02°)
4.46683592150960e+04	(-3.74650124099805e+01dB,1.00816308728183e+02°)
5.01187233627269e+04	(-3.65010088825043e+01dB,9.94884743932663e+01°)
5.62341325190346e+04	(-3.55296984938568e+01dB,9.82747283663083e+01°)
6.30957344480189e+04	(-3.45524745191207e+01dB,9.71623017063360e+01°)
7.07945784384133e+04	(-3.35704635759470e+01dB,9.61388342551244e+01°)
7.94328234724276e+04	(-3.25845685010994e+01dB,9.51924631700423e+01°)
8.91250938133740e+04	(-3.15955052986180e+01dB,9.43118512999649e+01°)
9.99999999999993e+04	(-3.06038340800233e+01dB,9.34861716459500e+01°)
1.12201845430196e+05	(-2.96099842766120e+01dB,9.27050601315267e+01°)
1.25892541179416e+05	(-2.86142745651764e+01dB,9.19585454516777e+01°)
1.41253754462274e+05	(-2.76169279816141e+01dB,9.12369619007070e+01°)
1.58489319246110e+05	(-2.66180826514570e+01dB,9.05308487151427e+01°)
1.77827941003891e+05	(-2.56177984741630e+01dB,8.98308374840447e+01°)
1.99526231496886e+05	(-2.46160599793534e+01dB,8.91275274224687e+01°)
2.23872113856832e+05	(-2.36127754399473e+01dB,8.84113466130386e+01°)
2.51188643150956e+05	(-2.26077721861560e+01dB,8.76723955125566e+01°)
2.81838293126443e+05	(-2.16007879209470e+01dB,8.69002668817414e+01°)
3.16227766016835e+05	(-2.05914576980120e+01dB,8.60838335549082e+01°)
3.54813389233573e+05	(-1.95792960990719e+01dB,8.52109917576946e+01°)
3.98107170553494e+05	(-1.85636740615213e+01dB,8.42683424887944e+01°)
4.46683592150960e+05	(-1.75437898055264e+01dB,8.32407860575558e+01°)
5.01187233627268e+05	(-1.65186334804733e+01dB,8.21109941026172e+01°)
5.62341325190344e+05	(-1.54869456646352e+01dB,8.08587076467239e+01°)
6.30957344480188e+05	(-1.44471710367657e+01dB,7.94597864798620e+01°)
7.07945784384132e+05	(-1.33974110260160e+01dB,7.78849007151955e+01°)
7.94328234724275e+05	(-1.23353842666752e+01dB,7.60977044312987e+01°)
8.91250938133738e+05	(-1.12584136514850e+01dB,7.40522568900907e+01°)
9.99999999999991e+05	(-1.01634784715006e+01dB,7.16893516003622e+01°)
1.12201845430195e+06	(-9.04740903301259e+00dB,6.89312766069408e+01°)
1.25892541179416e+06	(-7.90737783713520e+00dB,6.56743901194976e+01°)
1.41253754462274e+06	(-6.74199077877348e+00dB,6.17788871236308e+01°)
1.58489319246110e+06	(-5.55356157080120e+00dB,5.70557048641531e+01°)
1.77827941003891e+06	(-4.35262238141161e+00dB,5.12529869040312e+01°)
1.99526231496886e+06	(-3.16627635201118e+00dB,4.40522095839452e+01°)
2.23872113856832e+06	(-2.05166172443995e+00dB,3.51029115998771e+01°)
2.51188643150956e+06	(-1.11104607767028e+00dB,2.41547729339026e+01°)
2.81838293126443e+06	(-4.90317040110417e-01dB,1.13367213901997e+01°)
3.16227766016835e+06	(-3.28881743574122e-01dB,-2.55517871542808e+00°)
3.54813389233572e+06	(-6.69983540506581e-01dB,-1.61915700411515e+01°)
3.98107170553494e+06	(-1.42584892199778e+00dB,-2.83801855307640e+01°)
4.46683592150959e+06	(-2.44510676325516e+00dB,-3.85857123062937e+01°)
5.01187233627268e+06	(-3.59518663936539e+00dB,-4.68575216865369e+01°)
5.62341325190344e+06	(-4.79163861979299e+00dB,-5.35069607844438e+01°)
6.30957344480187e+06	(-5.99014621214784e+00dB,-5.88814110730777e+01°)
7.07945784384131e+06	(-7.17094597365039e+00dB,-6.32760949336694e+01°)
7.94328234724274e+06	(-8.32723913625821e+00dB,-6.69186094921000e+01°)
8.91250938133737e+06	(-9.45844957451395e+00dB,-6.99783725044750e+01°)
9.99999999999990e+06	(-1.05666894817870e+01dB,-7.25805923338430e+01°)
1.12201845430195e+07	(-1.16550103272900e+01dB,-7.48184014802269e+01°)
1.25892541179415e+07	(-1.27265806408687e+01dB,-7.67620062517822e+01°)
1.41253754462274e+07	(-1.37843291611844e+01dB,-7.84652354904632e+01°)
1.58489319246110e+07	(-1.48308160330399e+01dB,-7.99701422492104e+01°)
1.77827941003890e+07	(-1.58682121601108e+01dB,-8.13102278519021e+01°)
1.99526231496886e+07	(-1.68983267326683e+01dB,-8.25127119675668e+01°)
2.23872113856832e+07	(-1.79226533098137e+01dB,-8.36001460316541e+01°)
2.51188643150955e+07	(-1.89424202195507e+01dB,-8.45915740351177e+01°)
2.81838293126442e+07	(-1.99586388351897e+01dB,-8.55033797111500e+01°)
3.16227766016834e+07	(-2.09721472170702e+01dB,-8.63499149075543e+01°)
3.54813389233572e+07	(-2.19836485609971e+01dB,-8.71439740127204e+01°)
3.98107170553493e+07	(-2.29937448338474e+01dB,-8.78971590214191e+01°)
4.46683592150958e+07	(-2.40029664007666e+01dB,-8.86201659707436e+01°)
5.01187233627267e+07	(-2.50117986166149e+01dB,-8.93230138793368e+01°)
5.62341325190343e+07	(-2.60207064020291e+01dB,-9.00152305331669e+01°)
6.30957344480186e+07	(-2.70301578210193e+01dB,-9.07060044906391e+01°)
7.07945784384130e+07	(-2.80406476557339e+01dB,-9.14043088441539e+01°)
7.94328234724272e+07	(-2.90527219469623e+01dB,-9.21189990808880e+01°)
8.91250938133735e+07	(-3.00670044337034e+01dB,-9.28588844625671e+01°)
9.99999999999989e+07	(-3.10842257668074e+01dB,-9.36327694017554e+01°)
1.12201845430195e+08	(-3.21052562619357e+01dB,-9.44494581223701e+01°)
1.25892541179415e+08	(-3.31311427510609e+01dB,-9.53177122930399e+01°)
1.41253754462274e+08	(-3.41631497241749e+01dB,-9.62461472529577e+01°)
1.58489319246109e+08	(-3.52028043348825e+01dB,-9.72430480243623e+01°)
1.77827941003890e+08	(-3.62519438635032e+01dB,-9.83160819341569e+01°)
1.99526231496886e+08	(-3.73127627658780e+01dB,-9.94718812347728e+01°)
2.23872113856831e+08	(-3.83878543810420e+01dB,-1.00715468198089e+02°)
2.51188643150955e+08	(-3.94802397040090e+01dB,-1.02049499214745e+02°)
2.81838293126442e+08	(-4.05933725166055e+01dB,-1.03473316809161e+02°)
3.16227766016834e+08	(-4.17311071085380e+01dB,-1.04981822950097e+02°)
3.54813389233571e+08	(-4.28976127909040e+01dB,-1.06564226498350e+02°)
3.98107170553492e+08	(-4.40972199054402e+01dB,-1.08202771701444e+02°)
4.46683592150958e+08	(-4.53341868525726e+01dB,-1.09871616377376e+02°)
5.01187233627266e+08	(-4.66123881839231e+01dB,-1.11536081631110e+02°)
5.62341325190342e+08	(-4.79349398648350e+01dB,-1.13152514908770e+02°)
6.30957344480185e+08	(-4.93037965321912e+01dB,-1.14668969044564e+02°)
7.07945784384129e+08	(-5.07193711343623e+01dB,-1.16026789003752e+02°)
7.94328234724271e+08	(-5.21802326701981e+01dB,-1.17163031048875e+02°)
8.91250938133734e+08	(-5.36829280660985e+01dB,-1.18013464582117e+02°)
1.00000000000000e+09	(-5.52219506504115e+01dB,-1.18515789888015e+02°)
