Freq.	V(out)
1.00000000000000e+01	(6.24767534140105e+01dB,1.74515502770470e+02°)
1.12201845430196e+01	(6.24664940525554e+01dB,1.73851142885328e+02°)
1.25892541179417e+01	(6.24536126475687e+01dB,1.73107697899288e+02°)
1.41253754462275e+01	(6.24374500580475e+01dB,1.72276317612499e+02°)
1.58489319246111e+01	(6.24171877201369e+01dB,1.71347389066014e+02°)
1.77827941003892e+01	(6.23918126378740e+01dB,1.70310564738081e+02°)
1.99526231496888e+01	(6.23600766838347e+01dB,1.69154837203548e+02°)
2.23872113856834e+01	(6.23204504399246e+01dB,1.67868678730679e+02°)
2.51188643150958e+01	(6.22710726244091e+01dB,1.66440268553530e+02°)
2.81838293126445e+01	(6.22096974206443e+01dB,1.64857834245669e+02°)
3.16227766016838e+01	(6.21336438561895e+01dB,1.63110135337590e+02°)
3.54813389233575e+01	(6.20397538245694e+01dB,1.61187114837595e+02°)
3.98107170553497e+01	(6.19243682835130e+01dB,1.59080734505724e+02°)
4.46683592150963e+01	(6.17833341938589e+01dB,1.56785988888641e+02°)
5.01187233627272e+01	(6.16120570252328e+01dB,1.54302058045439e+02°)
5.62341325190348e+01	(6.14056137644194e+01dB,1.51633509031855e+02°)
6.30957344480192e+01	(6.11589375654735e+01dB,1.48791396821320e+02°)
7.07945784384137e+01	(6.08670759303409e+01dB,1.45794060520960e+02°)
7.94328234724280e+01	(6.05255093311237e+01dB,1.42667383768721e+02°)
8.91250938133744e+01	(6.01304987114090e+01dB,1.39444315878819e+02°)
9.99999999999998e+01	(5.96794136188729e+01dB,1.36163549920296e+02°)
1.12201845430196e+02	(5.91709849745351e+01dB,1.32867417160255e+02°)
1.25892541179416e+02	(5.86054334732770e+01dB,1.29599242212994e+02°)
1.41253754462275e+02	(5.79844469537790e+01dB,1.26400545318504e+02°)
1.58489319246111e+02	(5.73110115195419e+01dB,1.23308520395502e+02°)
1.77827941003892e+02	(5.65891309694726e+01dB,1.20354141948744e+02°)
1.99526231496888e+02	(5.58234872865248e+01dB,1.17561092343450e+02°)
2.23872113856833e+02	(5.50190972437794e+01dB,1.14945516279671e+02°)
2.51188643150957e+02	(5.41810090815102e+01dB,1.12516461848947e+02°)
2.81838293126445e+02	(5.33140652961405e+01dB,1.10276789588359e+02°)
3.16227766016837e+02	(5.24227397182744e+01dB,1.08224321818785e+02°)
3.54813389233575e+02	(5.15110436600693e+01dB,1.06353042498384e+02°)
3.98107170553496e+02	(5.05824883704652e+01dB,1.04654216026921e+02°)
4.46683592150962e+02	(4.96400885712382e+01dB,1.03117351054925e+02°)
5.01187233627271e+02	(4.86863927595157e+01dB,1.01730981098597e+02°)
5.62341325190348e+02	(4.77235285696236e+01dB,1.00483264436388e+02°)
6.30957344480192e+02	(4.67532545576353e+01dB,9.93624229852181e+01°)
7.07945784384136e+02	(4.57770125937088e+01dB,9.83570471453220e+01°)
7.94328234724279e+02	(4.47959773142059e+01dB,9.74562945685139e+01°)
8.91250938133743e+02	(4.38111007443825e+01dB,9.66500083193704e+01°)
9.99999999999997e+02	(4.28231513262645e+01dB,9.59287759298143e+01°)
1.12201845430196e+03	(4.18327472923270e+01dB,9.52839465819923e+01°)
1.25892541179416e+03	(4.08403847307647e+01dB,9.47076197166602e+01°)
1.41253754462275e+03	(3.98464608903286e+01dB,9.41926150188766e+01°)
1.58489319246111e+03	(3.88512933459408e+01dB,9.37324310372455e+01°)
1.77827941003892e+03	(3.78551356429828e+01dB,9.33211976000193e+01°)
1.99526231496887e+03	(3.68581899932665e+01dB,9.29536256108387e+01°)
2.23872113856833e+03	(3.58606175316354e+01dB,9.26249566393281e+01°)
2.51188643150957e+03	(3.48625465723647e+01dB,9.23309138752769e+01°)
2.81838293126444e+03	(3.38640792367260e+01dB,9.20676554117863e+01°)
3.16227766016837e+03	(3.28652967611634e+01dB,9.18317303999023e+01°)
3.54813389233574e+03	(3.18662637410955e+01dB,9.16200383262299e+01°)
3.98107170553496e+03	(3.08670315188088e+01dB,9.14297914689709e+01°)
4.46683592150961e+03	(2.98676408847279e+01dB,9.12584804593192e+01°)
5.01187233627270e+03	(2.88681242288706e+01dB,9.11038427940787e+01°)
5.62341325190347e+03	(2.78685072526139e+01dB,9.09638340971513e+01°)
6.30957344480190e+03	(2.68688103290936e+01dB,9.08366019016949e+01°)
7.07945784384135e+03	(2.58690495829193e+01dB,9.07204617138289e+01°)
7.94328234724278e+03	(2.48692377455649e+01dB,9.06138751174803e+01°)
8.91250938133741e+03	(2.38693848312803e+01dB,9.05154296846351e+01°)
9.99999999999995e+03	(2.28694986690735e+01dB,9.04238204633158e+01°)
1.12201845430196e+04	(2.18695853188037e+01dB,9.03378328252700e+01°)
1.25892541179416e+04	(2.08696493933690e+01dB,9.02563264654372e+01°)
1.41253754462275e+04	(1.98696943040332e+01dB,9.01782203549245e+01°)
1.58489319246111e+04	(1.88697224418866e+01dB,9.01024784579503e+01°)
1.77827941003891e+04	(1.78697353050543e+01dB,9.00280960306316e+01°)
1.99526231496887e+04	(1.68697335784135e+01dB,8.99540863253910e+01°)
2.23872113856833e+04	(1.58697171700300e+01dB,8.98794675289815e+01°)
2.51188643150957e+04	(1.48696852062738e+01dB,8.98032497646054e+01°)
2.81838293126444e+04	(1.38696359853254e+01dB,8.97244219892906e+01°)
3.16227766016836e+04	(1.28695668866335e+01dB,8.96419386165633e+01°)
3.54813389233573e+04	(1.18694742314954e+01dB,8.95547056915585e+01°)
3.98107170553495e+04	(1.08693530873822e+01dB,8.94615664410655e+01°)
4.46683592150960e+04	(9.86919700562956e+00dB,8.93612860147284e+01°)
5.01187233627269e+04	(8.86899767860403e+00dB,8.92525352258590e+01°)
5.62341325190346e+04	(7.86874449821902e+00dB,8.91338730913260e+01°)
6.30957344480189e+04	(6.86842399248124e+00dB,8.90037279601524e+01°)
7.07945784384133e+04	(5.86801911038426e+00dB,8.88603770103828e+01°)
7.94328234724276e+04	(4.86750831756640e+00dB,8.87019238843573e+01°)
8.91250938133740e+04	(3.86686445536297e+00dB,8.85262742250916e+01°)
9.99999999999993e+04	(2.86605330375828e+00dB,8.83311088729223e+01°)
1.12201845430196e+05	(1.86503177368535e+00dB,8.81138544847658e+01°)
1.25892541179416e+05	(8.63745635559783e-01dB,8.78716513522496e+01°)
1.41253754462274e+05	(-1.37873331951274e-01dB,8.76013182253634e+01°)
1.58489319246110e+05	(-1.13991091690510e+00dB,8.72993140032154e+01°)
1.77827941003891e+05	(-2.14247495078980e+00dB,8.69616962443256e+01°)
1.99526231496886e+05	(-3.14570090580110e+00dB,8.65840765913902e+01°)
2.23872113856832e+05	(-4.14975887996587e+00dB,8.61615734212952e+01°)
2.51188643150956e+05	(-5.15486229363746e+00dB,8.56887623497997e+01°)
2.81838293126443e+05	(-6.16127868445163e+00dB,8.51596256812156e+01°)
3.16227766016835e+05	(-7.16934305655414e+00dB,8.45675025483734e+01°)
3.54813389233573e+05	(-8.17947430920913e+00dB,8.39050424034282e+01°)
3.98107170553494e+05	(-9.19219533089037e+00dB,8.31641657771245e+01°)
4.46683592150960e+05	(-1.02081573823797e+01dB,8.23360379175939e+01°)
5.01187233627268e+05	(-1.12281693812284e+01dB,8.14110631488143e+01°)
5.62341325190344e+05	(-1.22532326015057e+01dB,8.03789106374835e+01°)
6.30957344480188e+05	(-1.32845810598292e+01dB,7.92285857543461e+01°)
7.07945784384132e+05	(-1.43237273916188e+01dB,7.79485652662276e+01°)
7.94328234724275e+05	(-1.53725132271319e+01dB,7.65270188640104e+01°)
8.91250938133738e+05	(-1.64331618355218e+01dB,7.49521432809138e+01°)
9.99999999999991e+05	(-1.75083290052599e+01dB,7.32126371304898e+01°)
1.12201845430195e+06	(-1.86011457182244e+01dB,7.12983424163218e+01°)
1.25892541179416e+06	(-1.97152432535477e+01dB,6.92010693532373e+01°)
1.41253754462274e+06	(-2.08547483141298e+01dB,6.69156010014688e+01°)
1.58489319246110e+06	(-2.20242334332490e+01dB,6.44408399728999e+01°)
1.77827941003891e+06	(-2.32286076463500e+01dB,6.17810103523480e+01°)
1.99526231496886e+06	(-2.44729359486383e+01dB,5.89467688361625e+01°)
2.23872113856832e+06	(-2.57621849844553e+01dB,5.59560234848310e+01°)
2.51188643150956e+06	(-2.71009071068705e+01dB,5.28342292691652e+01°)
2.81838293126443e+06	(-2.84928933380043e+01dB,4.96139536485056e+01°)
3.16227766016835e+06	(-2.99408427244661e+01dB,4.63336009927580e+01°)
3.54813389233572e+06	(-3.14461040030187e+01dB,4.30353451933359e+01°)
3.98107170553494e+06	(-3.30085393918272e+01dB,3.97625051046115e+01°)
4.46683592150959e+06	(-3.46265387223326e+01dB,3.65567436122599e+01°)
5.01187233627268e+06	(-3.62971809249758e+01dB,3.34555197742126e+01°)
5.62341325190344e+06	(-3.80165097209800e+01dB,3.04901539976243e+01°)
6.30957344480187e+06	(-3.97798713680681e+01dB,2.76847078893514e+01°)
7.07945784384131e+06	(-4.15822591304895e+01dB,2.50556952700570e+01°)
7.94328234724274e+06	(-4.34186196625666e+01dB,2.26124901811882e+01°)
8.91250938133737e+06	(-4.52840942241826e+01dB,2.03582156664957e+01°)
9.99999999999990e+06	(-4.71741856569892e+01dB,1.82908846356095e+01°)
1.12201845430195e+07	(-4.90848557544747e+01dB,1.64046001821916e+01°)
1.25892541179415e+07	(-5.10125655175543e+01dB,1.46906804419637e+01°)
1.41253754462274e+07	(-5.29542734915285e+01dB,1.31386311063940e+01°)
1.58489319246110e+07	(-5.49074066069354e+01dB,1.17369352510704e+01°)
1.77827941003890e+07	(-5.68698153962000e+01dB,1.04736616287643e+01°)
1.99526231496886e+07	(-5.88397223897508e+01dB,9.33691045453148e+00°)
2.23872113856832e+07	(-6.08156696491166e+01dB,8.31512344814242e+00°)
2.51188643150955e+07	(-6.27964690939388e+01dB,7.39728612826537e+00°)
2.81838293126442e+07	(-6.47811575887028e+01dB,6.57304799614901e+00°)
3.16227766016834e+07	(-6.67689576047535e+01dB,5.83278231952923e+00°)
3.54813389233572e+07	(-6.87592435472039e+01dB,5.16760295494706e+00°)
3.98107170553493e+07	(-7.07515134175650e+01dB,4.56935167825583e+00°)
4.46683592150958e+07	(-7.27453652716874e+01dB,4.03056610856195e+00°)
5.01187233627267e+07	(-7.47404778539549e+01dB,3.54443557604861e+00°)
5.62341325190343e+07	(-7.67365947888643e+01dB,3.10475015560089e+00°)
6.30957344480186e+07	(-7.87335117547401e+01dB,2.70584647691951e+00°)
7.07945784384130e+07	(-8.07310661276903e+01dB,2.34255272841688e+00°)
7.94328234724272e+07	(-8.27291286540724e+01dB,2.01013440390339e+00°)
8.91250938133735e+07	(-8.47275967780094e+01dB,1.70424171919732e+00°)
9.99999999999989e+07	(-8.67263893131421e+01dB,1.42085918675216e+00°)
1.12201845430195e+08	(-8.87254422032346e+01dB,1.15625753079103e+00°)
1.25892541179415e+08	(-9.07247051637548e+01dB,9.06947915810323e-01°)
1.41253754462274e+08	(-9.27241390368346e+01dB,6.69638319791060e-01°)
1.58489319246109e+08	(-9.47237137258201e+01dB,4.41191789585197e-01°)
1.77827941003890e+08	(-9.67234066036796e+01dB,2.18586255034203e-01°)
1.99526231496886e+08	(-9.87232013128505e+01dB,-1.12446013136210e-03°)
2.23872113856831e+08	(-1.00723086893832e+02dB,-2.20848815917109e-01°)
2.51188643150955e+08	(-1.02723057195863e+02dB,-4.43495320757525e-01°)
2.81838293126442e+08	(-1.04723110537422e+02dB,-6.72010288050116e-01°)
3.16227766016834e+08	(-1.06723249595858e+02dB,-9.09415990462993e-01°)
3.54813389233571e+08	(-1.08723481516407e+02dB,-1.15884961479699e+00°)
3.98107170553492e+08	(-1.10723818239708e+02dB,-1.42360341302471e+00°)
4.46683592150958e+08	(-1.12724277055457e+02dB,-1.70716643354590e+00°)
5.01187233627266e+08	(-1.14724881396701e+02dB,-2.01326820064648e+00°)
5.62341325190342e+08	(-1.16725661895361e+02dB,-2.34592468992889e+00°)
6.30957344480185e+08	(-1.18726657723832e+02dB,-2.70948692490033e+00°)
7.07945784384129e+08	(-1.20727918250964e+02dB,-3.10869249887080e+00°)
7.94328234724271e+08	(-1.22729505042688e+02dB,-3.54872031359202e+00°)
8.91250938133734e+08	(-1.24731494241000e+02dB,-4.03524882965672e+00°)
1.00000000000000e+09	(-1.26733979362750e+02dB,-4.57451814910288e+00°)
