Freq.	V(out)
1.00000000000000e+01	(1.08661438887633e+01dB,1.74514756099983e+02°)
1.12201845430196e+01	(1.08558845275027e+01dB,1.73850305107578e+02°)
1.25892541179417e+01	(1.08430031227578e+01dB,1.73106757897473e+02°)
1.41253754462275e+01	(1.08268405335370e+01dB,1.72275262913366e+02°)
1.58489319246111e+01	(1.08065781960096e+01dB,1.71346205674346e+02°)
1.77827941003892e+01	(1.07812031142255e+01dB,1.70309236950991e+02°)
1.99526231496888e+01	(1.07494671607871e+01dB,1.69153347402107e+02°)
2.23872113856834e+01	(1.07098409176377e+01dB,1.67867007146126e+02°)
2.51188643150958e+01	(1.06604631030827e+01dB,1.66438393004956e+02°)
2.81838293126445e+01	(1.05990879005209e+01dB,1.64855729845683e+02°)
3.16227766016838e+01	(1.05230343375844e+01dB,1.63107774162082e+02°)
3.54813389233575e+01	(1.04291443078734e+01dB,1.61184465555201e+02°)
3.98107170553497e+01	(1.03137587692240e+01dB,1.59077761962077e+02°)
4.46683592150963e+01	(1.01727246826009e+01dB,1.56782653639894e+02°)
5.01187233627272e+01	(1.00014475177839e+01dB,1.54298315834866e+02°)
5.62341325190348e+01	(9.79500426177273e+00dB,1.51629310202597e+02°)
6.30957344480192e+01	(9.54832806886467e+00dB,1.48786685657464e+02°)
7.07945784384137e+01	(9.25646644133832e+00dB,1.45788774508225e+02°)
7.94328234724280e+01	(8.91489985169335e+00dB,1.42661452764933e+02°)
8.91250938133744e+01	(8.51988924403732e+00dB,1.39437661183162e+02°)
9.99999999999998e+01	(8.06880416667027e+00dB,1.36156083229005e+02°)
1.12201845430196e+02	(7.56037554143615e+00dB,1.32859039394878e+02°)
1.25892541179416e+02	(6.99482406423144e+00dB,1.29589842205680e+02°)
1.41253754462275e+02	(6.37383757500612e+00dB,1.26389998336877e+02°)
1.58489319246111e+02	(5.70040217888477e+00dB,1.23296686487536e+02°)
1.77827941003892e+02	(4.97852167680013e+00dB,1.20340864085689e+02°)
1.99526231496888e+02	(4.21287805426872e+00dB,1.17546194336155e+02°)
2.23872113856833e+02	(3.40848808757306e+00dB,1.14928800440667e+02°)
2.51188643150957e+02	(2.57040002104698e+00dB,1.12497706369258e+02°)
2.81838293126445e+02	(1.70345635621059e+00dB,1.10255745594235e+02°)
3.16227766016837e+02	(8.12130930085762e-01dB,1.08200710069312e+02°)
3.54813389233575e+02	(-9.95649370809735e-02dB,1.06326549680136e+02°)
3.98107170553496e+02	(-1.02811998619296e+00dB,1.04624490596498e+02°)
4.46683592150962e+02	(-1.97051948264675e+00dB,1.03083998574212e+02°)
5.01187233627271e+02	(-2.92421491320728e+00dB,1.01693559000841e+02°)
5.62341325190348e+02	(-3.88707862324752e+00dB,1.00441276153661e+02°)
6.30957344480192e+02	(-4.85735203113134e+00dB,9.93153113593235e+01°)
7.07945784384136e+02	(-5.83359323453230e+00dB,9.83041870347472e+01°)
7.94328234724279e+02	(-6.81462755659918e+00dB,9.73969845533161e+01°)
8.91250938133743e+02	(-7.79950292108485e+00dB,9.65834613939550e+01°)
9.99999999999997e+02	(-8.78745082177273e+00dB,9.58541090601224e+01°)
1.12201845430196e+03	(-9.77785294537084e+00dB,9.52001689885620e+01°)
1.25892541179416e+03	(-1.07702131019677e+01dB,9.46136197281312e+01°)
1.41253754462275e+03	(-1.17641339147320e+01dB,9.40871453215588e+01°)
1.58489319246111e+03	(-1.27592976475061e+01dB,9.36140921251133e+01°)
1.77827941003892e+03	(-1.37554505519278e+01dB,9.31884192056575e+01°)
1.99526231496887e+03	(-1.47523901606600e+01dB,9.28046458711215e+01°)
2.23872113856833e+03	(-1.57499550171564e+01dB,9.24577987196384e+01°)
2.51188643150957e+03	(-1.67480164021374e+01dB,9.21433597424512e+01°)
2.81838293126444e+03	(-1.77464716844987e+01dB,9.18572164082904e+01°)
3.16227766016837e+03	(-1.87452389859233e+01dB,9.15956142295158e+01°)
3.54813389233574e+03	(-1.97442529029664e+01dB,9.13551120142002e+01°)
3.98107170553496e+03	(-2.07434610760938e+01dB,9.11325398066146e+01°)
4.46683592150961e+03	(-2.17428214342560e+01dB,9.09249593837374e+01°)
5.01187233627270e+03	(-2.27422999752982e+01dB,9.07296270873003e+01°)
5.62341325190347e+03	(-2.37418689683121e+01dB,9.05439587148577e+01°)
6.30957344480190e+03	(-2.47415054852645e+01dB,9.03654961588539e+01°)
7.07945784384135e+03	(-2.57411901852747e+01dB,9.01918754622037e+01°)
7.94328234724278e+03	(-2.67409062880704e+01dB,9.00207959471290e+01°)
8.91250938133741e+03	(-2.77406386826912e+01dB,8.98499900672289e+01°)
9.99999999999995e+03	(-2.87403731243832e+01dB,8.96771936284498e+01°)
1.12201845430196e+04	(-2.97400954773764e+01dB,8.95001160210417e+01°)
1.25892541179416e+04	(-3.07397909634323e+01dB,8.93164101007336e+01°)
1.41253754462275e+04	(-3.17394433764553e+01dB,8.91236413526697e+01°)
1.58489319246111e+04	(-3.27390342216815e+01dB,8.89192559660788e+01°)
1.77827941003891e+04	(-3.37385417341690e+01dB,8.87005474415675e+01°)
1.99526231496887e+04	(-3.47379397248260e+01dB,8.84646213473167e+01°)
2.23872113856833e+04	(-3.57371961939679e+01dB,8.82083578367104e+01°)
2.51188643150957e+04	(-3.67362716399315e+01dB,8.79283715407031e+01°)
2.81838293126444e+04	(-3.77351169758143e+01dB,8.76209684567329e+01°)
3.16227766016836e+04	(-3.87336709473642e+01dB,8.72820994777598e+01°)
3.54813389233573e+04	(-3.97318569217341e+01dB,8.69073102469099e+01°)
3.98107170553495e+04	(-4.07295788866296e+01dB,8.64916870960420e+01°)
4.46683592150960e+04	(-4.17267164640439e+01dB,8.60297989442846e+01°)
5.01187233627269e+04	(-4.27231186999572e+01dB,8.55156352154627e+01°)
5.62341325190346e+04	(-4.37185963415295e+01dB,8.49425401084700e+01°)
6.30957344480189e+04	(-4.47129122572502e+01dB,8.43031439585859e+01°)
7.07945784384133e+04	(-4.57057695939604e+01dB,8.35892930094105e+01°)
7.94328234724276e+04	(-4.66967972030334e+01dB,8.27919797368295e+01°)
8.91250938133740e+04	(-4.76855318130027e+01dB,8.19012770070281e+01°)
9.99999999999993e+04	(-4.86713963917304e+01dB,8.09062809030820e+01°)
1.12201845430196e+05	(-4.96536741501781e+01dB,7.97950691211099e+01°)
1.25892541179416e+05	(-5.06314777264135e+01dB,7.85546845130223e+01°)
1.41253754462274e+05	(-5.16037133053136e+01dB,7.71711566946663e+01°)
1.58489319246110e+05	(-5.25690398498542e+01dB,7.56295786038109e+01°)
1.77827941003891e+05	(-5.35258243414605e+01dB,7.39142592430374e+01°)
1.99526231496886e+05	(-5.44720950669755e+01dB,7.20089779925200e+01°)
2.23872113856832e+05	(-5.54054966667438e+01dB,6.98973686964653e+01°)
2.51188643150956e+05	(-5.63232529496746e+01dB,6.75634613216010e+01°)
2.81838293126443e+05	(-5.72221463424510e+01dB,6.49924025681869e+01°)
3.16227766016835e+05	(-5.80985259796204e+01dB,6.21713608553834e+01°)
3.54813389233573e+05	(-5.89483591676145e+01dB,5.90905921075274e+01°)
3.98107170553494e+05	(-5.97673420557575e+01dB,5.57445990375271e+01°)
4.46683592150960e+05	(-6.05510831393407e+01dB,5.21332611181875e+01°)
5.01187233627268e+05	(-6.12953659623132e+01dB,4.82627560538984e+01°)
5.62341325190344e+05	(-6.19964841855219e+01dB,4.41460567764520e+01°)
6.30957344480188e+05	(-6.26516242297068e+01dB,3.98027975295181e+01°)
7.07945784384132e+05	(-6.32592521700950e+01dB,3.52583807858815e+01°)
7.94328234724275e+05	(-6.38194491234443e+01dB,3.05423453611508e+01°)
8.91250938133738e+05	(-6.43341396441383e+01dB,2.56862038051207e+01°)
9.99999999999991e+05	(-6.48071732115378e+01dB,2.07211237619922e+01°)
1.12201845430195e+06	(-6.52442459429491e+01dB,1.56759065169938e+01°)
1.25892541179416e+06	(-6.56526783066096e+01dB,1.05756710228006e+01°)
1.41253754462274e+06	(-6.60410846419752e+01dB,5.44149315275769e+00°)
1.58489319246110e+06	(-6.64189757638760e+01dB,2.91031512601935e-01°)
1.77827941003891e+06	(-6.67963285741649e+01dB,-4.86004378781003e+00°)
1.99526231496886e+06	(-6.71831437320331e+01dB,-9.99616551910737e+00°)
2.23872113856832e+06	(-6.75890028147162e+01dB,-1.50999595851944e+01°)
2.51188643150956e+06	(-6.80226358711252e+01dB,-2.01507485462245e+01°)
2.81838293126443e+06	(-6.84915190914434e+01dB,-2.51238275620736e+01°)
3.16227766016835e+06	(-6.90015352357944e+01dB,-2.99907167767803e+01°)
3.54813389233572e+06	(-6.95567378409023e+01dB,-3.47203831597936e+01°)
3.98107170553494e+06	(-7.01592563053146e+01dB,-3.92812034793223e+01°)
4.46683592150959e+06	(-7.08093603815295e+01dB,-4.36432727343714e+01°)
5.01187233627268e+06	(-7.15056743439886e+01dB,-4.77806029540783e+01°)
5.62341325190344e+06	(-7.22455034335982e+01dB,-5.16728245211276e+01°)
6.30957344480187e+06	(-7.30252180236910e+01dB,-5.53061615590569e+01°)
7.07945784384131e+06	(-7.38406390830778e+01dB,-5.86736421113384e+01°)
7.94328234724274e+06	(-7.46873798583432e+01dB,-6.17746584273708e+01°)
8.91250938133737e+06	(-7.55611169295200e+01dB,-6.46140790621635e+01°)
9.99999999999990e+06	(-7.64577820619144e+01dB,-6.72011303261286e+01°)
1.12201845430195e+07	(-7.73736800955968e+01dB,-6.95482316622912e+01°)
1.25892541179415e+07	(-7.83055459879556e+01dB,-7.16699139381825e+01°)
1.41253754462274e+07	(-7.92505567970631e+01dB,-7.35818934550253e+01°)
1.58489319246110e+07	(-8.02063135604416e+01dB,-7.53003292127003e+01°)
1.77827941003890e+07	(-8.11708054034246e+01dB,-7.68412603544528e+01°)
1.99526231496886e+07	(-8.21423650751971e+01dB,-7.82202036151870e+01°)
2.23872113856832e+07	(-8.31196221990220e+01dB,-7.94518832487188e+01°)
2.51188643150955e+07	(-8.41014581657762e+01dB,-8.05500650401973e+01°)
2.81838293126442e+07	(-8.50869648593404e+01dB,-8.15274685861348e+01°)
3.16227766016834e+07	(-8.60754082100160e+01dB,-8.23957360724984e+01°)
3.54813389233572e+07	(-8.70661968114747e+01dB,-8.31654401657033e+01°)
3.98107170553493e+07	(-8.80588553886735e+01dB,-8.38461176215175e+01°)
4.46683592150958e+07	(-8.90530026692345e+01dB,-8.44463186393398e+01°)
5.01187233627267e+07	(-9.00483331123705e+01dB,-8.49736647153204e+01°)
5.62341325190343e+07	(-9.10446019335741e+01dB,-8.54349098759504e+01°)
6.30957344480186e+07	(-9.20416128931817e+01dB,-8.58360017464551e+01°)
7.07945784384130e+07	(-9.30392083693551e+01dB,-8.61821401005898e+01°)
7.94328234724272e+07	(-9.40372612961823e+01dB,-8.64778313556714e+01°)
8.91250938133735e+07	(-9.50356686074296e+01dB,-8.67269380748577e+01°)
9.99999999999989e+07	(-9.60343458813266e+01dB,-8.69327229434822e+01°)
1.12201845430195e+08	(-9.70332229295247e+01dB,-8.70978869496114e+01°)
1.25892541179415e+08	(-9.80322401133893e+01dB,-8.72246016770347e+01°)
1.41253754462274e+08	(-9.90313452030155e+01dB,-8.73145357208430e+01°)
1.58489319246109e+08	(-1.00030490619183e+02dB,-8.73688752901515e+01°)
1.77827941003890e+08	(-1.01029630916396e+02dB,-8.73883390889669e+01°)
1.99526231496886e+08	(-1.02028720376583e+02dB,-8.73731875719794e+01°)
2.23872113856831e+08	(-1.03027710588284e+02dB,-8.73232266609613e+01°)
2.51188643150955e+08	(-1.04026547885393e+02dB,-8.72378060072572e+01°)
2.81838293126442e+08	(-1.05025170512663e+02dB,-8.71158118718373e+01°)
3.16227766016834e+08	(-1.06023505372071e+02dB,-8.69556547120802e+01°)
3.54813389233571e+08	(-1.07021464184261e+02dB,-8.67552515869146e+01°)
3.98107170553492e+08	(-1.08018938872244e+02dB,-8.65120035630557e+01°)
4.46683592150958e+08	(-1.09015795939623e+02dB,-8.62227684130709e+01°)
5.01187233627266e+08	(-1.10011869572352e+02dB,-8.58838290826404e+01°)
5.62341325190342e+08	(-1.11006953141328e+02dB,-8.54908586845562e+01°)
6.30957344480185e+08	(-1.12000788723337e+02dB,-8.50388831965402e+01°)
7.07945784384129e+08	(-1.12993054192023e+02dB,-8.45222436411938e+01°)
7.94328234724271e+08	(-1.13983347362783e+02dB,-8.39345603808537e+01°)
8.91250938133734e+08	(-1.14971166613859e+02dB,-8.32687033383755e+01°)
1.00000000000000e+09	(-1.15955887364384e+02dB,-8.25167735560817e+01°)
